! Created Sun Oct 22 11:41:54 2023
# ghz S ri R 50
! 2 Port Network Data from SP1.SP block
! freq  reS11  imS11  reS21  imS21  reS12  imS12  reS22  imS22  
!     
              0.01   -6.17295588e-06      -0.0005943733        0.999995268     -0.00301844116        0.999995268     -0.00301844116     2.58469745e-06    -0.000594399735
         0.0224875   -3.12154378e-05     -0.00133645072         0.99997607     -0.00678770982         0.99997607     -0.00678770982     1.30700838e-05     -0.00133675132
          0.034975   -7.55077869e-05     -0.00207819086        0.999942111       -0.010556956        0.999942111       -0.010556956     3.16145675e-05     -0.00207932181
         0.0474625   -0.000139047135     -0.00281940644        0.999893391      -0.0143261672        0.999893391      -0.0143261672     5.82154511e-05     -0.00282223276
           0.05995   -0.000221829367     -0.00355991015        0.999829904      -0.0180953309        0.999829904      -0.0180953309     9.28688641e-05     -0.00356560569
         0.0724375   -0.000323849118     -0.00429951468        0.999751647      -0.0218644344        0.999751647      -0.0218644344     0.000135569763     -0.00430956211
          0.084925   -0.000445099774     -0.00503803272        0.999658615      -0.0256334648        0.999658615      -0.0256334648     0.000186311932     -0.00505422352
         0.0974125   -0.000585573469     -0.00577527694          0.9995508      -0.0294024095          0.9995508      -0.0294024095     0.000245087977     -0.00579971136
            0.1099   -0.000745261086     -0.00651105998        0.999428196      -0.0331712553        0.999428196      -0.0331712553     0.000311889335     -0.00654614705
         0.1223875    -0.00092415225      -0.0072451945        0.999290794       -0.036939989        0.999290794       -0.036939989     0.000386706261     -0.00729365197
          0.134875    -0.00112223533     -0.00797749311        0.999138584      -0.0407085973        0.999138584      -0.0407085973     0.000469527838     -0.00804234742
         0.1473625    -0.00133949743     -0.00870776842        0.998971557      -0.0444770666        0.998971557      -0.0444770666     0.000560341968      -0.0087923547
           0.15985    -0.00157592439     -0.00943583301          0.9987897      -0.0482453832          0.9987897      -0.0482453832     0.000659135376     -0.00954379499
         0.1723375    -0.00183150079      -0.0101614994        0.998593001      -0.0520135329        0.998593001      -0.0520135329     0.000765893605      -0.0102967894
          0.184825    -0.00210620994      -0.0108845802        0.998381447      -0.0557815014        0.998381447      -0.0557815014     0.000880601018      -0.0110514591
         0.1973125    -0.00240003387      -0.0116048879        0.998155023      -0.0595492742        0.998155023      -0.0595492742      0.00100324079      -0.0118079251
            0.2098    -0.00271295331       -0.012322235        0.997913714      -0.0633168363        0.997913714      -0.0633168363      0.00113379493      -0.0125663081
         0.2222875    -0.00304494775      -0.0130364339        0.997657503      -0.0670841725        0.997657503      -0.0670841725      0.00127224422      -0.0133267291
          0.234775    -0.00339599536       -0.013747297        0.997386373      -0.0708512672        0.997386373      -0.0708512672       0.0014185683      -0.0140893088
         0.2472625    -0.00376607302      -0.0144546368        0.997100305      -0.0746181045        0.997100305      -0.0746181045      0.00157274559      -0.0148541678
           0.25975    -0.00415515632      -0.0151582656         0.99679928      -0.0783846679         0.99679928      -0.0783846679      0.00173475333      -0.0156214266
         0.2722375    -0.00456321953      -0.0158579957        0.996483278      -0.0821509407        0.996483278      -0.0821509407      0.00190456757      -0.0163912056
          0.284725    -0.00499023564      -0.0165536395        0.996152277      -0.0859169057        0.996152277      -0.0859169057      0.00208216314      -0.0171636251
         0.2972125    -0.00543617628      -0.0172450091        0.995806256      -0.0896825453        0.995806256      -0.0896825453      0.00226751369      -0.0179388053
            0.3097    -0.00590101179       -0.017931917         0.99544519      -0.0934478412         0.99544519      -0.0934478412      0.00246059167      -0.0187168661
         0.3221875    -0.00638471116      -0.0186141751        0.995069055      -0.0972127749        0.995069055      -0.0972127749      0.00266136832      -0.0194979274
          0.334675    -0.00688724206      -0.0192915958        0.994677827       -0.100977327        0.994677827       -0.100977327      0.00286981368      -0.0202821089
         0.3471625    -0.00740857079      -0.0199639912        0.994271479       -0.104741478        0.994271479       -0.104741478      0.00308589656      -0.0210695303
           0.35965    -0.00794866233      -0.0206311733        0.993849985       -0.108505208        0.993849985       -0.108505208      0.00330958459      -0.0218603109
         0.3721375    -0.00850748027      -0.0212929542        0.993413317       -0.112268496        0.993413317       -0.112268496      0.00354084417        -0.02265457
          0.384625    -0.00908498684       -0.021949146        0.992961445        -0.11603132        0.992961445        -0.11603132      0.00377964046      -0.0234524266
         0.3971125    -0.00968114291      -0.0225995606         0.99249434       -0.119793659         0.99249434       -0.119793659      0.00402593745      -0.0242539996
            0.4096     -0.0102959079      -0.0232440101        0.992011971       -0.123555489        0.992011971       -0.123555489      0.00427969786      -0.0250594077
         0.4220875       -0.01092924      -0.0238823065        0.991514308       -0.127316788        0.991514308       -0.127316788       0.0045408832      -0.0258687694
          0.434575     -0.0115810958      -0.0245142616        0.991001317       -0.131077531        0.991001317       -0.131077531      0.00480945375      -0.0266822029
         0.4470625     -0.0122514305      -0.0251396873        0.990472965       -0.134837693        0.990472965       -0.134837693      0.00508536857      -0.0274998264
           0.45955      -0.012940198      -0.0257583956        0.989929219        -0.13859725        0.989929219        -0.13859725      0.00536858545      -0.0283217577
         0.4720375     -0.0136473508      -0.0263701983        0.989370043       -0.142356175        0.989370043       -0.142356175      0.00565906098      -0.0291481144
          0.484525     -0.0143728397      -0.0269749073        0.988795402        -0.14611444        0.988795402        -0.14611444      0.00595675047      -0.0299790138
         0.4970125     -0.0151166143      -0.0275723343        0.988205258       -0.149872019        0.988205258       -0.149872019      0.00626160802       -0.030814573
            0.5095     -0.0158786225      -0.0281622913        0.987599575       -0.153628883        0.987599575       -0.153628883      0.00657358644      -0.0316549091
         0.5219875     -0.0166588111      -0.0287445901        0.986978315       -0.157385003        0.986978315       -0.157385003      0.00689263731      -0.0325001385
          0.534475     -0.0174571251      -0.0293190425        0.986341437       -0.161140347        0.986341437       -0.161140347      0.00721871096      -0.0333503775
         0.5469625     -0.0182735079      -0.0298854602        0.985688904       -0.164894886        0.985688904       -0.164894886      0.00755175643      -0.0342057422
           0.55945     -0.0191079019      -0.0304436553        0.985020673       -0.168648586        0.985020673       -0.168648586      0.00789172152      -0.0350663484
         0.5719375     -0.0199602474      -0.0309934394        0.984336704       -0.172401417        0.984336704       -0.172401417      0.00823855275      -0.0359323115
          0.584425     -0.0208304835      -0.0315346245        0.983636955       -0.176153342        0.983636955       -0.176153342      0.00859219538      -0.0368037466
         0.5969125     -0.0217185478      -0.0320670224        0.982921382       -0.179904329        0.982921382       -0.179904329      0.00895259337      -0.0376807685
            0.6094      -0.022624376       -0.032590445        0.982189943       -0.183654341        0.982189943       -0.183654341      0.00931968943      -0.0385634917
         0.6218875     -0.0235479027      -0.0331047044        0.981442592       -0.187403342        0.981442592       -0.187403342      0.00969342495      -0.0394520302
          0.634375     -0.0244890606      -0.0336096125        0.980679286       -0.191151294        0.980679286       -0.191151294       0.0100737401       -0.040346498
         0.6468625     -0.0254477808      -0.0341049813        0.979899979       -0.194898158        0.979899979       -0.194898158       0.0104605736      -0.0412470083
           0.65935     -0.0264239929      -0.0345906229        0.979104624       -0.198643895        0.979104624       -0.198643895       0.0108538631      -0.0421536742
         0.6718375      -0.027417625      -0.0350663494        0.978293174       -0.202388464        0.978293174       -0.202388464       0.0112535448      -0.0430666083
          0.684325     -0.0284286034      -0.0355319732        0.977465582       -0.206131823        0.977465582       -0.206131823       0.0116595537      -0.0439859229
         0.6968125     -0.0294568526      -0.0359873064        0.976621801       -0.209873929        0.976621801       -0.209873929       0.0120718233      -0.0449117298
            0.7093     -0.0305022959      -0.0364321616         0.97576178       -0.213614739         0.97576178       -0.213614739        0.012490286      -0.0458441404
         0.7217875     -0.0315648544      -0.0368663511        0.974885471       -0.217354207        0.974885471       -0.217354207       0.0129148728      -0.0467832656
          0.734275      -0.032644448      -0.0372896875        0.973992823       -0.221092287        0.973992823       -0.221092287       0.0133455134      -0.0477292159
         0.7467625     -0.0337409946      -0.0377019837        0.973083788       -0.224828931        0.973083788       -0.224828931       0.0137821362      -0.0486821015
           0.75925     -0.0348544103      -0.0381030523        0.972158312        -0.22856409        0.972158312        -0.22856409       0.0142246681      -0.0496420319
         0.7717375     -0.0359846099      -0.0384927064        0.971216346       -0.232297716        0.971216346       -0.232297716        0.014673035      -0.0506091161
          0.784225      -0.037131506      -0.0388707591        0.970257836       -0.236029757        0.970257836       -0.236029757       0.0151271612      -0.0515834629
         0.7967125     -0.0382950098      -0.0392370236        0.969282732        -0.23976016        0.969282732        -0.23976016       0.0155869697      -0.0525651802
            0.8092     -0.0394750304      -0.0395913135        0.968290978       -0.243488873        0.968290978       -0.243488873       0.0160523823      -0.0535543756
         0.8216875     -0.0406714754      -0.0399334423        0.967282523        -0.24721584        0.967282523        -0.24721584       0.0165233194      -0.0545511562
          0.834175     -0.0418842505      -0.0402632239        0.966257313       -0.250941005        0.966257313       -0.250941005       0.0169996999      -0.0555556283
         0.8466625     -0.0431132596      -0.0405804723        0.965215293        -0.25466431        0.965215293        -0.25466431       0.0174814416       -0.056567898
           0.85915     -0.0443584047      -0.0408850017        0.964156408       -0.258385698        0.964156408       -0.258385698       0.0179684608      -0.0575880704
         0.8716375      -0.045619586      -0.0411766268        0.963080605       -0.262105108        0.963080605       -0.262105108       0.0184606724      -0.0586162502
          0.884125     -0.0468967018      -0.0414551622        0.961987827       -0.265822479        0.961987827       -0.265822479       0.0189579902      -0.0596525417
         0.8966125     -0.0481896488       -0.041720423        0.960878019       -0.269537748        0.960878019       -0.269537748       0.0194603263      -0.0606970481
            0.9091     -0.0494983216      -0.0419722245        0.959751125        -0.27325085        0.959751125        -0.27325085       0.0199675918      -0.0617498724
         0.9215875     -0.0508226127      -0.0422103822        0.958607089       -0.276961721        0.958607089       -0.276961721        0.020479696      -0.0628111167
          0.934075     -0.0521624131      -0.0424347122        0.957445855       -0.280670292        0.957445855       -0.280670292       0.0209965473      -0.0638808824
         0.9465625     -0.0535176116      -0.0426450306        0.956267366       -0.284376497        0.956267366       -0.284376497       0.0215180524      -0.0649592703
           0.95905     -0.0548880951      -0.0428411541        0.955071565       -0.288080265        0.955071565       -0.288080265       0.0220441168      -0.0660463806
         0.9715375     -0.0562737488      -0.0430228997        0.953858395       -0.291781524        0.953858395       -0.291781524       0.0225746445      -0.0671423125
          0.984025     -0.0576744555      -0.0431900847        0.952627799       -0.295480202        0.952627799       -0.295480202       0.0231095383      -0.0682471646
         0.9965125     -0.0590900963       -0.043342527         0.95137972       -0.299176225         0.95137972       -0.299176225       0.0236486995      -0.0693610347
             1.009     -0.0605205503      -0.0434800446        0.950114101       -0.302869517        0.950114101       -0.302869517       0.0241920281        -0.07048402
         1.0214875     -0.0619656946      -0.0436024564        0.948830883       -0.306560001        0.948830883       -0.306560001       0.0247394226      -0.0716162166
          1.033975     -0.0634254041      -0.0437095813         0.94753001       -0.310247597         0.94753001       -0.310247597       0.0252907803      -0.0727577199
         1.0464625     -0.0648995518      -0.0438012391        0.946211423       -0.313932226        0.946211423       -0.313932226        0.025845997      -0.0739086247
           1.05895     -0.0663880086      -0.0438772498        0.944875066       -0.317613806        0.944875066       -0.317613806       0.0264049672      -0.0750690246
         1.0714375     -0.0678906436      -0.0439374341         0.94352088       -0.321292253         0.94352088       -0.321292253       0.0269675839      -0.0762390124
          1.083925     -0.0694073233      -0.0439816132        0.942148808       -0.324967482        0.942148808       -0.324967482       0.0275337389      -0.0774186803
         1.0964125     -0.0709379126       -0.044009609        0.940758794       -0.328639406        0.940758794       -0.328639406       0.0281033225      -0.0786081191
            1.1089     -0.0724822741      -0.0440212437        0.939350778       -0.332307938        0.939350778       -0.332307938       0.0286762236      -0.0798074192
         1.1213875     -0.0740402683      -0.0440163405        0.937924705       -0.335972987        0.937924705       -0.335972987       0.0292523299      -0.0810166696
          1.133875     -0.0756117535       -0.043994723        0.936480517       -0.339634462        0.936480517       -0.339634462       0.0298315276      -0.0822359585
         1.1463625      -0.077196586      -0.0439562155        0.935018158       -0.343292271        0.935018158       -0.343292271       0.0304137014      -0.0834653733
           1.15885     -0.0787946199      -0.0439006432         0.93353757       -0.346946317         0.93353757       -0.346946317       0.0309987349      -0.0847050001
         1.1713375     -0.0804057072      -0.0438278319        0.932038698       -0.350596506        0.932038698       -0.350596506       0.0315865103       -0.085954924
          1.183825     -0.0820296975       -0.043737608        0.930521484       -0.354242738        0.930521484       -0.354242738       0.0321769081      -0.0872152293
         1.1963125     -0.0836664386       -0.043629799        0.928985875       -0.357884914        0.928985875       -0.357884914       0.0327698079      -0.0884859988
            1.2088     -0.0853157757      -0.0435042329        0.927431813       -0.361522934        0.927431813       -0.361522934       0.0333650876      -0.0897673147
         1.2212875     -0.0869775521      -0.0433607388        0.925859245       -0.365156693        0.925859245       -0.365156693       0.0339626239      -0.0910592577
          1.233775     -0.0886516088      -0.0431991466        0.924268115       -0.368786087        0.924268115       -0.368786087       0.0345622922      -0.0923619076
         1.2462625     -0.0903377845       -0.043019287        0.922658369        -0.37241101        0.922658369        -0.37241101       0.0351639663      -0.0936753427
           1.25875     -0.0920359158      -0.0428209917        0.921029953       -0.376031353        0.921029953       -0.376031353        0.035767519      -0.0949996406
         1.2712375      -0.093745837      -0.0426040935        0.919382814       -0.379647007        0.919382814       -0.379647007       0.0363728216      -0.0963348773
          1.283725     -0.0954673801      -0.0423684259          0.9177169        -0.38325786          0.9177169        -0.38325786       0.0369797438      -0.0976811277
         1.2962125     -0.0972003749      -0.0421138236        0.916032158       -0.386863799        0.916032158       -0.386863799       0.0375881545      -0.0990384655
            1.3087      -0.098944649      -0.0418401224        0.914328536       -0.390464709        0.914328536       -0.390464709        0.038197921       -0.100406963
         1.3211875      -0.100700028      -0.0415471591        0.912605983       -0.394060474        0.912605983       -0.394060474       0.0388089091       -0.101786692
          1.333675      -0.102466334      -0.0412347718         0.91086445       -0.397650974         0.91086445       -0.397650974       0.0394209836       -0.103177721
         1.3461625      -0.104243388      -0.0409027995        0.909103887        -0.40123609        0.909103887        -0.40123609        0.040034008       -0.104580119
           1.35865      -0.106031009      -0.0405510825        0.907324244         -0.4048157        0.907324244         -0.4048157       0.0406478442       -0.105993953
         1.3711375      -0.107829013      -0.0401794624        0.905525474        -0.40838968        0.905525474        -0.40838968       0.0412623531       -0.107419288
          1.383625      -0.109637214       -0.039787782        0.903707529       -0.411957904        0.903707529       -0.411957904       0.0418773942        -0.10885619
         1.3961125      -0.111455423      -0.0393758854        0.901870364       -0.415520247        0.901870364       -0.415520247       0.0424928257        -0.11030472
            1.4086      -0.113283449       -0.038943618        0.900013931       -0.419076579        0.900013931       -0.419076579       0.0431085048       -0.111764941
         1.4210875      -0.115121099      -0.0384908267        0.898138187       -0.422626769        0.898138187       -0.422626769       0.0437242871       -0.113236911
          1.433575      -0.116968179      -0.0380173598        0.896243088       -0.426170685        0.896243088       -0.426170685       0.0443400272       -0.114720689
