! Created Thu Nov 16 12:56:43 2023
# mhz S ri R 50
! 2 Port Network Data from SP1.SP block
! freq  reS11  imS11  reS21  imS21  reS12  imS12  reS22  imS22  
!     
1       -0.66626428       0.0174549788     0.000482863709       0.0209459746     0.000482863709       0.0209459746       -0.999420564       0.0251351695
1.19839679      -0.666088595       0.0209188678     0.000693686184       0.0251026414     0.000693686184       0.0251026414       -0.999167577       0.0301231696
1.39679359      -0.665881057       0.0243832278     0.000942731829       0.0292598734     0.000942731829       0.0292598734       -0.998868722       0.0351118481
1.59519038      -0.665641595       0.0278481338      0.00123008581       0.0334177605      0.00123008581       0.0334177605       -0.998523897       0.0401013126
1.79358717      -0.665370128       0.0313136588      0.00155584636       0.0375763905      0.00155584636       0.0375763905       -0.998132984       0.0450916687
1.99198397      -0.665066563       0.0347798745      0.00192012481       0.0417358495      0.00192012481       0.0417358495        -0.99769585       0.0500830193
2.19038076      -0.664730795       0.0382468507      0.00232304559       0.0458962208      0.00232304559       0.0458962208       -0.997212345        0.055075465
2.38877756      -0.664362711       0.0417146547      0.00276474627       0.0500575856      0.00276474627       0.0500575856       -0.996682304       0.0600691028
2.58717435      -0.663962185       0.0451833518       0.0032453776       0.0542200221       0.0032453776       0.0542200221       -0.996105547       0.0650640265
2.78557114       -0.66352908       0.0486530044      0.00376510351       0.0583836053      0.00376510351       0.0583836053       -0.995481876       0.0700603264
2.98396794      -0.663063249       0.0521236725      0.00432410117       0.0625484069      0.00432410117       0.0625484069       -0.994811079       0.0750580883
3.18236473      -0.662564533       0.0555954125      0.00492256099        0.066714495      0.00492256099        0.066714495       -0.994092927        0.080057394
3.38076152      -0.662032761       0.0590682779       0.0055606867       0.0708819335       0.0055606867       0.0708819335       -0.993327176       0.0850583201
3.57915832      -0.661467754       0.0625423185      0.00623869534       0.0750507822      0.00623869534       0.0750507822       -0.992513566       0.0900609386
3.77755511      -0.660869319       0.0660175803      0.00695681735       0.0792210963      0.00695681735       0.0792210963       -0.991651819       0.0950653156
3.9759519      -0.660237253       0.0694941053      0.00771529656       0.0833929264      0.00771529656       0.0833929264       -0.990741644        0.100071512
4.1743487      -0.659571341       0.0729719312      0.00851439027       0.0875663174      0.00851439027       0.0875663174       -0.989782732        0.105079581
4.37274549      -0.658871359        0.076451091      0.00935436925       0.0917413092      0.00935436925       0.0917413092       -0.988774757        0.110089571
4.57114228      -0.658137068       0.0799316131       0.0102355178       0.0959179357       0.0102355178       0.0959179357       -0.987717379        0.115101523
4.76953908      -0.657368222       0.0834135205        0.011158134        0.100096225        0.011158134        0.100096225       -0.986610239         0.12011547
4.96793587      -0.656564559        0.086896831       0.0121225291        0.104276197       0.0121225291        0.104276197       -0.985452965        0.125131437
5.16633267       -0.65572581       0.0903815567       0.0131290286        0.108457868       0.0131290286        0.108457868       -0.984245166        0.130149442
5.36472946      -0.654851691       0.0938677034       0.0141779712        0.112641244       0.0141779712        0.112641244       -0.982986435        0.135169493
5.56312625      -0.653941909        0.097355271       0.0152697097        0.116826325       0.0152697097        0.116826325       -0.981676348         0.14019159
5.76152305      -0.652996158        0.100844253       0.0164046106        0.121013103       0.0164046106        0.121013103       -0.980314467        0.145215724
5.95991984      -0.652014122        0.104334634       0.0175830542        0.125201561       0.0175830542        0.125201561       -0.978900335        0.150241873
6.15831663      -0.650995471        0.107826395       0.0188054347        0.129391674       0.0188054347        0.129391674       -0.977433478        0.155270009
6.35671343      -0.649939867        0.111319506       0.0200721602        0.133583407       0.0200721602        0.133583407       -0.975913408        0.160300089
6.55511022      -0.648846956        0.114813931       0.0213836528        0.137776717       0.0213836528        0.137776717       -0.974339617         0.16533206
6.75350701      -0.647716376        0.118309624       0.0227403486        0.141971549       0.0227403486        0.141971549       -0.972711582        0.170365859
6.95190381      -0.646547752        0.121806532       0.0241426977        0.146167839       0.0241426977        0.146167839       -0.971028763        0.175401407
7.1503006      -0.645340697        0.125304593       0.0255911642        0.150365511       0.0255911642        0.150365511       -0.969290603        0.180438614
7.34869739      -0.644094811        0.128803733       0.0270862262         0.15456448       0.0270862262         0.15456448       -0.967496529        0.185477376
7.54709419      -0.642809687        0.132303871       0.0286283762        0.158764645       0.0286283762        0.158764645       -0.965645949        0.190517574
7.74549098        -0.6414849        0.135804914       0.0302181203        0.162965897       0.0302181203        0.162965897       -0.963738256        0.195559077
7.94388778      -0.640120017         0.13930676       0.0318559791        0.167168112       0.0318559791        0.167168112       -0.961772825        0.200601734
8.14228457      -0.638714594        0.142809293       0.0335424872        0.171371152       0.0335424872        0.171371152       -0.959749015        0.205645382
8.34068136      -0.637268172        0.146312389       0.0352781932        0.175574867       0.0352781932        0.175574867       -0.957666168         0.21068984
8.53907816      -0.635780284        0.149815908       0.0370636597         0.17977909       0.0370636597         0.17977909       -0.955523608        0.215734908
8.73747495      -0.634250447        0.153319701       0.0388994635        0.183983642       0.0388994635        0.183983642       -0.953320644         0.22078037
8.93587174       -0.63267817        0.156823604       0.0407861955        0.188188325       0.0407861955        0.188188325       -0.951056565         0.22582599
9.13426854       -0.63106295         0.16032744       0.0427244602        0.192392928       0.0427244602        0.192392928       -0.948730648        0.230871514
9.33266533       -0.62940427        0.163831018       0.0447148765        0.196597222       0.0447148765        0.196597222       -0.946342148        0.235916666
9.53106212      -0.627701603        0.167334131       0.0467580766        0.200800958       0.0467580766        0.200800958       -0.943890308        0.240961149
9.72945892      -0.625954411         0.17083656       0.0488547068        0.205003872       0.0488547068        0.205003872       -0.941374352        0.246004646
9.92785571      -0.624162144        0.174338067       0.0510054271         0.20920568       0.0510054271         0.20920568       -0.938793487        0.251046816
10.1262525      -0.622324241        0.177838399       0.0532109108        0.213406078       0.0532109108        0.213406078       -0.936146907        0.256087294
10.3246493      -0.620440129        0.181337286       0.0554718449        0.217604743       0.0554718449        0.217604743       -0.933433786        0.261125692
10.5230461      -0.618509226        0.184834442       0.0577889293         0.22180133       0.0577889293         0.22180133       -0.930653285        0.266161596
10.7214429      -0.616530935         0.18832956       0.0601628775        0.225995471       0.0601628775        0.225995471       -0.927804547        0.271194566
10.9198397      -0.614504654        0.191822316       0.0625944154        0.230186779       0.0625944154        0.230186779       -0.924886701        0.276224135
11.1182365      -0.612429765        0.195312366       0.0650842821         0.23437484       0.0650842821         0.23437484       -0.921898861        0.281249808
11.3166333      -0.610305643        0.198799347        0.067633229        0.238559217        0.067633229        0.238559217       -0.918840125         0.28627106
11.5150301       -0.60813165        0.202282874       0.0702420196        0.242739449       0.0702420196        0.242739449       -0.915709577        0.291287339
11.7134269      -0.605907142         0.20576254       0.0729114295        0.246915049       0.0729114295        0.246915049       -0.912506285        0.296298058
11.9118236      -0.603631462        0.209237918       0.0756422461        0.251085501       0.0756422461        0.251085501       -0.909229305        0.301302601
12.1102204      -0.601303943        0.212708554       0.0784352678        0.255250265       0.0784352678        0.255250265       -0.905877679        0.306300318
12.3086172      -0.598923913        0.216173974       0.0812913044        0.259408769       0.0812913044        0.259408769       -0.902450435        0.311290523
12.507014      -0.596490687        0.219633679       0.0842111757        0.263560415       0.0842111757        0.263560415       -0.898946589        0.316272498
12.7054108      -0.594003573        0.223087142       0.0871957122         0.26770457       0.0871957122         0.26770457       -0.895365145        0.321245485
12.9038076      -0.591461872        0.226533812       0.0902457537        0.271840575       0.0902457537        0.271840575       -0.891705096         0.32620869
13.1022044      -0.588864876        0.229973112       0.0933621493        0.275967734       0.0933621493        0.275967734       -0.887965421        0.331161281
13.3006012      -0.586211869        0.233404433       0.0965457566         0.28008532       0.0965457566         0.28008532       -0.884145092        0.336102384
13.498998      -0.583502132        0.236827143       0.0997974415        0.284192571       0.0997974415        0.284192571        -0.88024307        0.341031085
13.6973948      -0.580734936        0.240240575        0.103118077        0.288288689        0.103118077        0.288288689       -0.876258308        0.345946427
13.8957916      -0.577909548        0.243644034        0.106508543        0.292372841        0.106508543        0.292372841       -0.872189749        0.350847409
14.0941884      -0.575025229        0.247036795        0.109969725        0.296444154        0.109969725        0.296444154        -0.86803633        0.355732985
14.2925852      -0.572081239        0.250418099        0.113502514        0.300501718        0.113502514        0.300501718       -0.863796984        0.360602062
14.490982      -0.569076829        0.253787153        0.117107805        0.304544583        0.117107805        0.304544583       -0.859470634          0.3654535
14.6893788      -0.566011251        0.257143131        0.120786498        0.308571757        0.120786498        0.308571757       -0.855056202        0.370286109
14.8877756      -0.562883755        0.260485173        0.124539494        0.312582207        0.124539494        0.312582207       -0.850552607        0.375098649
15.0861723      -0.559693588         0.26381238        0.128367695        0.316574856        0.128367695        0.316574856       -0.845958766        0.379889827
15.2845691      -0.556439996        0.267123819        0.132272005        0.320548583        0.132272005        0.320548583       -0.841273594        0.384658299
15.4829659      -0.553122228        0.270418517        0.136253326        0.324502221        0.136253326        0.324502221       -0.836496009        0.389402665
15.6813627      -0.549739534        0.273695463        0.140312559        0.328434556        0.140312559        0.328434556       -0.831624929        0.394121467
15.8797595      -0.546291166        0.276953606        0.144450601        0.332344328        0.144450601        0.332344328       -0.826659279        0.398813193
16.0781563      -0.542776379        0.280191854        0.148668346        0.336230225        0.148668346        0.336230225       -0.821597985         0.40347627
16.2765531      -0.539194435        0.283409073        0.152966679        0.340090888        0.152966679        0.340090888       -0.816439986        0.408109066
16.4749499        -0.5355446        0.286604087         0.15734648        0.343924904         0.15734648        0.343924904       -0.811184225        0.412709885
16.6733467      -0.531826151        0.289775674        0.161808618        0.347730808        0.161808618        0.347730808       -0.805829658         0.41727697
16.8717435      -0.528038371        0.292922569        0.166353954        0.351507083        0.166353954        0.351507083       -0.800375255          0.4218085
17.0701403      -0.524180555        0.296043463        0.170983334        0.355252155        0.170983334        0.355252155       -0.794819999        0.426302586
17.2685371       -0.52025201        0.299136997        0.175697589        0.358964396        0.175697589        0.358964396       -0.789162894        0.430757276
17.4669339      -0.516252055        0.302201767        0.180497534        0.362642121        0.180497534        0.362642121       -0.783402959        0.435170545
17.6653307      -0.512180027         0.30523632        0.185383967        0.366283584        0.185383967        0.366283584       -0.777539239        0.439540301
17.8637275       -0.50803528        0.308239154        0.190357664        0.369886985        0.190357664        0.369886985       -0.771570803        0.443864382
18.0621242      -0.503817186        0.311208717        0.195419377         0.37345046        0.195419377         0.37345046       -0.765496747        0.448140552
18.260521      -0.499525138        0.314143406        0.200569834        0.376972087        0.200569834        0.376972087       -0.759316199        0.452366505
18.4589178      -0.495158554        0.317041568        0.205809735        0.380449881        0.205809735        0.380449881       -0.753028318        0.456539858
18.6573146      -0.490716876        0.319901496        0.211139749        0.383881795        0.211139749        0.383881795       -0.746632301        0.460658154
18.8557114      -0.486199574        0.322721432        0.216560511        0.387265719        0.216560511        0.387265719       -0.740127387        0.464718862
19.0541082      -0.481606149        0.325499565        0.222072621        0.390599478        0.222072621        0.390599478       -0.733512855        0.468719373
19.252505      -0.476936133        0.328234028         0.22767664        0.393880834         0.22767664        0.393880834       -0.726788032        0.472657001
19.4509018      -0.472189094        0.330922904        0.233373087        0.397107484        0.233373087        0.397107484       -0.719952296        0.476528981
19.6492986      -0.467364638        0.333564217        0.239162434         0.40027706        0.239162434         0.40027706       -0.713005079        0.480332472
19.8476954       -0.46246241         0.33615594        0.245045108        0.403387128        0.245045108        0.403387128       -0.705945871        0.484064553
20.0460922        -0.4574821         0.33869599         0.25102148        0.406435188         0.25102148        0.406435188       -0.698774224        0.487722226
20.244489      -0.452423443        0.341182229        0.257091868        0.409418675        0.257091868        0.409418675       -0.691489758         0.49130241
20.4428858      -0.447286224        0.343612466        0.263256532        0.412334959        0.263256532        0.412334959       -0.684092162        0.494801951
20.6412826      -0.442070279        0.345984452        0.269515666        0.415181343        0.269515666        0.415181343       -0.676581201        0.498217611
20.8396794      -0.436775501        0.348295889        0.275869399        0.417955066        0.275869399        0.417955066       -0.668956721        0.501546079
21.0380762      -0.431401842         0.35054442         0.28231779        0.420653304         0.28231779        0.420653304       -0.661218652        0.504783964
21.2364729      -0.425949314        0.352727639        0.288860823        0.423273166        0.288860823        0.423273166       -0.653367012        0.507927799
21.4348697      -0.420417997        0.354843085        0.295498404        0.425811702        0.295498404        0.425811702       -0.645401916        0.510974043
21.6332665      -0.414808039        0.356888249        0.302230353        0.428265899        0.302230353        0.428265899       -0.637323576        0.513919079
21.8316633      -0.409119661        0.358860569        0.309056406        0.430632682        0.309056406        0.430632682       -0.629132312        0.516759219
22.0300601      -0.403353161        0.360757434        0.315976207        0.432908921        0.315976207        0.432908921       -0.620828552        0.519490705
22.2284569      -0.397508916        0.362576188        0.322989301        0.435091426        0.322989301        0.435091426       -0.612412839        0.522109711
22.4268537      -0.391587387        0.364314128        0.330095135        0.437176953        0.330095135        0.437176953       -0.603885838        0.524612344
22.6252505      -0.385589124        0.365968506        0.337293051        0.439162207        0.337293051        0.439162207       -0.595248338        0.526994649
22.8236473      -0.379514767        0.367536535         0.34458228        0.441043842         0.34458228        0.441043842       -0.586501264         0.52925261
23.0220441      -0.373365052        0.369015387        0.351961937        0.442818464        0.351961937        0.442818464       -0.577645675        0.531382157
23.2204409      -0.367140815        0.370402198        0.359431022        0.444482637        0.359431022        0.444482637       -0.568682773        0.533379165
23.4188377      -0.360842993         0.37169407        0.366988408        0.446032884        0.366988408        0.446032884        -0.55961391        0.535239461
23.6172345      -0.354472633        0.372888076         0.37463284        0.447465691         0.37463284        0.447465691       -0.550440592        0.536958829
23.8156313       -0.34803089        0.373981259        0.382362932         0.44877751        0.382362932         0.44877751       -0.541164481        0.538533012
24.0140281      -0.341519034         0.37497064        0.390177159        0.449964768        0.390177159        0.449964768       -0.531787409        0.539957722
24.2124248      -0.334938455        0.375853223        0.398073854        0.451023867        0.398073854        0.451023867       -0.522311375         0.54122864
24.4108216      -0.328290662        0.376625992        0.406051206         0.45195119        0.406051206         0.45195119       -0.512738553        0.542341428
24.6092184      -0.321577291        0.377285923         0.41410725        0.452743108         0.41410725        0.452743108         -0.5030713         0.54329173
24.8076152      -0.314800108        0.377829988        0.422239871        0.453395985        0.422239871        0.453395985       -0.493312155        0.544075182
