! Created Thu Nov 16 11:37:42 2023
# mhz S ri R 50
! 2 Port Network Data from SP1.SP block
! freq  reS11  imS11  reS21  imS21  reS12  imS12  reS22  imS22  
!     
1       0.197644455       -0.248226989        0.636688826       -0.243157096        0.636688826       -0.243157096        0.196862636       -0.266401581
1.09819639       0.182595771       -0.267065053        0.621680729        -0.26149819        0.621680729        -0.26149819        0.181654004       -0.287015108
1.19639279       0.166825249       -0.284623723        0.605954696       -0.278560189        0.605954696       -0.278560189        0.165708961       -0.306346769
1.29458918       0.150465196       -0.300889197         0.58964305       -0.294329339         0.58964305       -0.294329339        0.149159902       -0.324382585
1.39278557       0.133642737       -0.315862674         0.57287293       -0.308806884         0.57287293       -0.308806884        0.132134036       -0.341123581
1.49098196       0.116478172       -0.329558678        0.555764652       -0.322007402        0.555764652       -0.322007402        0.114751752       -0.356584119
1.58917836       0.099083742       -0.342003277        0.538430467       -0.333957015        0.538430467       -0.333957015       0.0971253778       -0.370790106
1.68737475      0.0815627547       -0.353232266        0.520973689       -0.344691571        0.520973689       -0.344691571       0.0793583048       -0.383777181
1.78557114      0.0640090534       -0.363289374        0.503488168       -0.354254857        0.503488168       -0.354254857       0.0615444613       -0.395588924
1.88376754       0.046506787       -0.372224566        0.486058056       -0.362696895        0.486058056       -0.362696895       0.0437680794        -0.40627515
1.98196393      0.0291304339       -0.380092459        0.468757831        -0.37007236        0.468757831        -0.37007236       0.0261037194       -0.415890334
2.08016032      0.0119450328       -0.386950894         0.45165253       -0.376439151         0.45165253       -0.376439151      0.00861650079       -0.424492173
2.17835671    -0.00499342299       -0.392859671        0.434798141       -0.381857127        0.434798141       -0.381857127     -0.00863750343       -0.432140327
2.27655311     -0.0216374715       -0.397879449        0.418242118       -0.386387006        0.418242118       -0.386387006      -0.0256107524       -0.438895317
2.3747495     -0.0379475847       -0.402070823        0.402023979       -0.390089439        0.402023979       -0.390089439        -0.04226364       -0.444817598
2.47294589     -0.0538915204       -0.405493549        0.386175956       -0.393024242        0.386175956       -0.393024242      -0.0585638462       -0.449966793
2.57114228     -0.0694436505       -0.408205931        0.370723661       -0.395249774        0.370723661       -0.395249774      -0.0744856651       -0.454401067
2.66933868     -0.0845842869       -0.410264329        0.355686767       -0.396822452        0.355686767       -0.396822452       -0.090009331       -0.458176647
2.76753507     -0.0992990223       -0.411722798        0.341079664       -0.397796384        0.341079664       -0.397796384       -0.105120359        -0.46134745
2.86573146      -0.113578099        -0.41263282        0.326912091        -0.39822311        0.326912091        -0.39822311       -0.119808912       -0.463964827
2.96392786      -0.127415812       -0.413043138        0.313189732       -0.398151423        0.313189732       -0.398151423       -0.134069206       -0.466077385
3.06212425      -0.140809958       -0.412999651        0.299914767       -0.397627274        0.299914767       -0.397627274       -0.147898959       -0.467730888
3.16032064      -0.153761327       -0.412545375        0.287086385       -0.396693733        0.287086385       -0.396693733       -0.161298877       -0.468968223
3.25851703      -0.166273237       -0.411720461        0.274701242          -0.395391        0.274701242          -0.395391       -0.174272199       -0.469829405
3.35671343      -0.178351125        -0.41056224        0.262753876       -0.393756454        0.262753876       -0.393756454       -0.186824275       -0.470351633
3.45490982      -0.190002171       -0.409105305         0.25123708       -0.391824737         0.25123708       -0.391824737       -0.198962202       -0.470569369
3.55310621      -0.201234975       -0.407381615        0.240142228       -0.389627855        0.240142228       -0.389627855       -0.210694493       -0.470514442
3.65130261      -0.212059265       -0.405420614        0.229459564       -0.387195298        0.229459564       -0.387195298       -0.222030786       -0.470216164
3.749499      -0.222485647       -0.403249359        0.219178451       -0.384554168        0.219178451       -0.384554168         -0.2329816       -0.469701465
3.84769539      -0.232525392       -0.400892658        0.209287591       -0.381729318        0.209287591       -0.381729318       -0.243558111       -0.468995023
3.94589178      -0.242190241       -0.398373208        0.199775212       -0.378743486        0.199775212       -0.378743486       -0.253771968       -0.468119407
4.04408818      -0.251492252       -0.395711731        0.190629225       -0.375617439        0.190629225       -0.375617439       -0.263635134       -0.467095215
4.14228457       -0.26044366       -0.392927114        0.181837363       -0.372370104        0.181837363       -0.372370104       -0.273159746       -0.465941209
4.24048096      -0.269056767       -0.390036541        0.173387293       -0.369018705        0.173387293       -0.369018705       -0.282358009       -0.464674447
4.33867735      -0.277343844       -0.387055616        0.165266712       -0.365578886        0.165266712       -0.365578886       -0.291242091       -0.463310414
4.43687375      -0.285317054       -0.383998491        0.157463424       -0.362064837        0.157463424       -0.362064837       -0.299824054       -0.461863138
4.53507014      -0.292988386       -0.380877977        0.149965406       -0.358489408        0.149965406       -0.358489408       -0.308115783       -0.460345313
4.63326653      -0.300369607       -0.377705655        0.142760858       -0.354864216        0.142760858       -0.354864216       -0.316128938       -0.458768401
4.73146293      -0.307472216       -0.374491976        0.135838247       -0.351199749        0.135838247       -0.351199749       -0.323874911       -0.457142738
4.82965932      -0.314307417       -0.371246358        0.129186334       -0.347505459        0.129186334       -0.347505459       -0.331364798       -0.455477626
4.92785571      -0.320886091       -0.367977272        0.122794203       -0.343789853        0.122794203       -0.343789853       -0.338609369       -0.453781426
5.0260521      -0.327218783       -0.364692329        0.116651275       -0.340060574        0.116651275       -0.340060574       -0.345619055       -0.452061635
5.1242485      -0.333315686       -0.361398348        0.110747321       -0.336324476        0.110747321       -0.336324476       -0.352403937       -0.450324967
5.22244489      -0.339186636       -0.358101435        0.105072469       -0.332587695        0.105072469       -0.332587695       -0.358973734       -0.448577417
5.32064128      -0.344841109        -0.35480704       0.0996172077       -0.328855715       0.0996172077       -0.328855715       -0.365337806       -0.446824334
5.41883768      -0.350288219        -0.35152002       0.0943723852       -0.325133422       0.0943723852       -0.325133422        -0.37150515       -0.445070469
5.51703407      -0.355536726       -0.348244694       0.0893292073       -0.321425165       0.0893292073       -0.321425165       -0.377484404       -0.443320042
5.61523046      -0.360595033       -0.344984889       0.0844792323       -0.317734801       0.0844792323       -0.317734801       -0.383283852        -0.44157678
5.71342685      -0.365471199       -0.341743989       0.0798143647       -0.314065742       0.0798143647       -0.314065742        -0.38891143       -0.439843971
5.81162325      -0.370172944       -0.338524976        0.075326847       -0.310420997        0.075326847       -0.310420997       -0.394374736       -0.438124501
5.90981964      -0.374707658       -0.335330467       0.0710092511        -0.30680321       0.0710092511        -0.30680321       -0.399681036       -0.436420895
6.00801603      -0.379082414       -0.332162746       0.0668544683       -0.303214694       0.0668544683       -0.303214694       -0.404837275       -0.434735349
6.10621242      -0.383303971       -0.329023804       0.0628556991       -0.299657462       0.0628556991       -0.299657462       -0.409850089       -0.433069763
6.20440882      -0.387378794       -0.325915358       0.0590064429       -0.296133258       0.0590064429       -0.296133258       -0.414725812        -0.43142577
6.30260521      -0.391313056       -0.322838884       0.0553004864       -0.292643581       0.0553004864       -0.292643581       -0.419470491       -0.429804761
6.4008016      -0.395112655       -0.319795636       0.0517318933        -0.28918971       0.0517318933        -0.28918971       -0.424089896       -0.428207909
6.498998      -0.398783225       -0.316786673       0.0482949931       -0.285772724       0.0482949931       -0.285772724       -0.428589527       -0.426636194
6.59719439       -0.40233014       -0.313812872       0.0449843701       -0.282393525       0.0449843701       -0.282393525       -0.432974631       -0.425090416
6.69539078      -0.405758535       -0.310874952       0.0417948529       -0.279052853       0.0417948529       -0.279052853        -0.43725021        -0.42357122
6.79358717      -0.409073308       -0.307973487       0.0387215034       -0.275751301       0.0387215034       -0.275751301        -0.44142103       -0.422079106
6.89178357      -0.412279135       -0.305108922       0.0357596074       -0.272489335       0.0357596074       -0.272489335       -0.445491633       -0.420614451
6.98997996      -0.415380477       -0.302281585       0.0329046637       -0.269267303       0.0329046637       -0.269267303       -0.449466349       -0.419177513
7.08817635      -0.418381592         -0.2994917       0.0301523751       -0.266085446       0.0301523751       -0.266085446       -0.453349302       -0.417768452
7.18637275      -0.421286545       -0.296739398       0.0274986387       -0.262943914       0.0274986387       -0.262943914       -0.457144421       -0.416387336
7.28456914      -0.424099212       -0.294024729       0.0249395368       -0.259842774       0.0249395368       -0.259842774        -0.46085545       -0.415034152
7.38276553      -0.426823296       -0.291347665       0.0224713287       -0.256782014       0.0224713287       -0.256782014       -0.464485954       -0.413708815
7.48096192      -0.429462331       -0.288708115       0.0200904419       -0.253761561       0.0200904419       -0.253761561       -0.468039333       -0.412411178
7.57915832      -0.432019687       -0.286105929       0.0177934644       -0.250781278       0.0177934644       -0.250781278       -0.471518822       -0.411141035
7.67735471      -0.434498585       -0.283540905       0.0155771368        -0.24784098       0.0155771368        -0.24784098       -0.474927506       -0.409898134
7.7755511        -0.4369021       -0.281012796       0.0134383454       -0.244940431       0.0134383454       -0.244940431       -0.478268324       -0.408682176
7.87374749      -0.439233168       -0.278521314       0.0113741148       -0.242079358       0.0113741148       -0.242079358       -0.481544074       -0.407492828
7.97194389      -0.441494592       -0.276066136      0.00938160136       -0.239257452      0.00938160136       -0.239257452       -0.484757426        -0.40632972
8.07014028      -0.443689051       -0.273646909      0.00745808713        -0.23647437      0.00745808713        -0.23647437       -0.487910921       -0.405192458
8.16833667      -0.445819104       -0.271263253      0.00560097345       -0.233729743      0.00560097345       -0.233729743       -0.491006982       -0.404080619
8.26653307      -0.447887197       -0.268914764      0.00380777532       -0.231023181      0.00380777532       -0.231023181       -0.494047919       -0.402993762
8.36472946      -0.449895668       -0.266601021      0.00207611595        -0.22835427      0.00207611595        -0.22835427       -0.497035934       -0.401931428
8.46292585      -0.451846752       -0.264321585     0.000403721518       -0.225722581     0.000403721518       -0.225722581       -0.499973125       -0.400893145
8.56112224      -0.453742584       -0.262076001     -0.00121158378        -0.22312767     -0.00121158378        -0.22312767       -0.502861493       -0.399878426
8.65931864      -0.455585208       -0.259863805     -0.00277188246       -0.220569079     -0.00277188246       -0.220569079       -0.505702945       -0.398886776
8.75751503      -0.457376579       -0.257684523     -0.00427916819       -0.218046344     -0.00427916819       -0.218046344       -0.508499302       -0.397917695
8.85571142      -0.459118568       -0.255537674     -0.00573535009       -0.215558989     -0.00573535009       -0.215558989       -0.511252299       -0.396970674
8.95390782      -0.460812964       -0.253422771     -0.00714225671       -0.213106534     -0.00714225671       -0.213106534       -0.513963591       -0.396045204
9.05210421       -0.46246148       -0.251339322     -0.00850163994       -0.210688494     -0.00850163994       -0.210688494       -0.516634756        -0.39514077
9.1503006      -0.464065758       -0.249286834     -0.00981517858       -0.208304381     -0.00981517858       -0.208304381       -0.519267301        -0.39425686
9.24849699      -0.465627367       -0.247264811      -0.0110844818       -0.205953703      -0.0110844818       -0.205953703       -0.521862663       -0.393392962
9.34669339      -0.467147812       -0.245272759      -0.0123110926       -0.203635971      -0.0123110926       -0.203635971       -0.524422215       -0.392548563
9.44488978      -0.468628536       -0.243310182      -0.0134964906       -0.201350693      -0.0134964906       -0.201350693       -0.526947265       -0.391723156
9.54308617      -0.470070919       -0.241376588      -0.0146420953       -0.199097379      -0.0146420953       -0.199097379       -0.529439063       -0.390916236
9.64128257      -0.471476287       -0.239471485      -0.0157492686       -0.196875541      -0.0157492686       -0.196875541       -0.531898801       -0.390127303
9.73947896      -0.472845908       -0.237594387      -0.0168193179       -0.194684695      -0.0168193179       -0.194684695       -0.534327619       -0.389355862
9.83767535      -0.474181002        -0.23574481      -0.0178534982       -0.192524356      -0.0178534982       -0.192524356       -0.536726604       -0.388601422
9.93587174      -0.475482735       -0.233922274      -0.0188530146       -0.190394049      -0.0188530146       -0.190394049       -0.539096795         -0.3878635
10.0340681      -0.476752228       -0.232126304      -0.0198190248       -0.188293297      -0.0198190248       -0.188293297       -0.541439183        -0.38714162
10.1322645      -0.477990558       -0.230356432       -0.020752641       -0.186221632       -0.020752641       -0.186221632       -0.543754715       -0.386435311
10.2304609      -0.479198756       -0.228612193      -0.0216549323       -0.184178589      -0.0216549323       -0.184178589       -0.546044298        -0.38574411
10.3286573      -0.480377814        -0.22689313      -0.0225269261       -0.182163709      -0.0225269261       -0.182163709       -0.548308794       -0.385067564
10.4268537      -0.481528685       -0.225198789      -0.0233696106       -0.180176539      -0.0233696106       -0.180176539       -0.550549032       -0.384405224
10.5250501      -0.482652282       -0.223528726      -0.0241839362       -0.178216632      -0.0241839362       -0.178216632       -0.552765799       -0.383756651
10.6232465      -0.483749485       -0.221882502      -0.0249708169       -0.176283544      -0.0249708169       -0.176283544        -0.55495985       -0.383121415
10.7214429      -0.484821138       -0.220259683      -0.0257311328       -0.174376841      -0.0257311328       -0.174376841       -0.557131907       -0.382499092
10.8196393      -0.485868053       -0.218659844      -0.0264657307       -0.172496095      -0.0264657307       -0.172496095       -0.559282658       -0.381889268
10.9178357       -0.48689101       -0.217082567      -0.0271754258       -0.170640882      -0.0271754258       -0.170640882       -0.561412763       -0.381291538
11.0160321      -0.487890761        -0.21552744      -0.0278610035       -0.168810785      -0.0278610035       -0.168810785       -0.563522852       -0.380705504
11.1142285      -0.488868027       -0.213994056      -0.0285232202       -0.167005396      -0.0285232202       -0.167005396       -0.565613526       -0.380130778
11.2124248      -0.489823504       -0.212482019      -0.0291628045       -0.165224312      -0.0291628045       -0.165224312       -0.567685363       -0.379566978
11.3106212       -0.49075786       -0.210990938       -0.029780459       -0.163467135       -0.029780459       -0.163467135       -0.569738912       -0.379013734
11.4088176       -0.49167174       -0.209520429      -0.0303768608       -0.161733477      -0.0303768608       -0.161733477         -0.5717747       -0.378470681
11.507014      -0.492565762       -0.208070114      -0.0309526627       -0.160022954      -0.0309526627       -0.160022954       -0.573793232       -0.377937465
11.6052104      -0.493440524       -0.206639625      -0.0315084944       -0.158335189      -0.0315084944       -0.158335189        -0.57579499        -0.37741374
11.7034068      -0.494296601       -0.205228597      -0.0320449633       -0.156669812      -0.0320449633       -0.156669812       -0.577780434       -0.376899167
11.8016032      -0.495134547       -0.203836675      -0.0325626558       -0.155026459      -0.0325626558       -0.155026459       -0.579750006       -0.376393416
11.8997996      -0.495954896        -0.20246351      -0.0330621375       -0.153404774      -0.0330621375       -0.153404774       -0.581704128       -0.375896165
11.997996      -0.496758162       -0.201108759      -0.0335439545       -0.151804405      -0.0335439545       -0.151804405       -0.583643204       -0.375407101
12.0961924      -0.497544842       -0.199772085      -0.0340086343       -0.150225008      -0.0340086343       -0.150225008        -0.58556762       -0.374925917
12.1943888      -0.498315414       -0.198453161      -0.0344566861       -0.148666245      -0.0344566861       -0.148666245       -0.587477747       -0.374452315
12.2925852      -0.499070339       -0.197151662      -0.0348886022       -0.147127784      -0.0348886022       -0.147127784       -0.589373938       -0.373986005
12.3907816      -0.499810064       -0.195867272      -0.0353048579       -0.145609298      -0.0353048579       -0.145609298       -0.591256533       -0.373526704
12.488978      -0.500535017       -0.194599682      -0.0357059127       -0.144110468      -0.0357059127       -0.144110468       -0.593125856       -0.373074137
12.5871743      -0.501245613       -0.193348588       -0.036092211        -0.14263098       -0.036092211        -0.14263098       -0.594982217       -0.372628035
12.6853707      -0.501942253       -0.192113691      -0.0364641822       -0.141170524      -0.0364641822       -0.141170524       -0.596825915       -0.372188138
12.7835671      -0.502625323         -0.1908947      -0.0368222416         -0.1397288      -0.0368222416         -0.1397288       -0.598657233       -0.371754191
