# GHz S MA R 50

1.000000000000000e-02  5.9440535422991135e-04 -9.0595032790877497e+01  9.9999982350469863e-01 -1.7294423231658426e-01  9.9999982350469863e-01 -1.7294423231658426e-01  5.9440535464359531e-04 -8.9750855673241560e+01
2.248750000000000e-02  1.3368152192975529e-03 -9.1338012454472391e+01  9.9999910678822379e-01 -3.8891045904545307e-01  9.9999910678822379e-01 -3.8891045904545307e-01  1.3368152148342273e-03 -8.9439808462332380e+01
3.497500000000000e-02  2.0795621357560050e-03 -9.2080836446617013e+01  9.9999783733322256e-01 -6.0488156744825416e-01  9.9999783733322256e-01 -6.0488156744825416e-01  2.0795621343013266e-03 -8.9128926691072010e+01
4.746250000000000e-02  2.8228331122588848e-03 -9.2823418498228946e+01  9.9999601620812528e-01 -8.2086026780594756e-01  9.9999601620812528e-01 -8.2086026780594756e-01  2.8228331141539336e-03 -8.8818302039819272e+01
5.995000000000000e-02  3.5668149018608527e-03 -9.3565672625464515e+01  9.9999363894628335e-01 -1.0368492750211231e+00  9.9999363894628335e-01 -1.0368492750211231e+00  3.5668149044321886e-03 -8.8508025930844795e+01
7.243750000000000e-02  4.3116939518900088e-03 -9.4307513153988296e+01  9.9999070454221950e-01 -1.2528512944952268e+00  9.9999070454221950e-01 -1.2528512944952268e+00  4.3116939525652239e-03 -8.8198189442638167e+01
8.492500000000000e-02  5.0576563244852310e-03 -9.5048854845304447e+01  9.9998721044889916e-01 -1.4688690249296079e+00  9.9998721044889916e-01 -1.4688690249296079e+00  5.0576563274037072e-03 -8.7888883213796305e+01
9.741250000000001e-02  5.8048875976449759e-03 -9.5789612978561792e+01  9.9998315159058837e-01 -1.6849051906507413e+00  9.9998315159058837e-01 -1.6849051906507413e+00  5.8048875937250499e-03 -8.7580197399593857e+01
1.099000000000000e-01  6.5535727774599026e-03 -9.6529703473517770e+01  9.9997852533841558e-01 -1.9009624836382610e+00  9.9997852533841558e-01 -1.9009624836382610e+00  6.5535727780738386e-03 -8.7272221488949796e+01
1.223875000000000e-01  7.3038962700746448e-03 -9.7269042874302968e+01  9.9997332652449811e-01 -2.1170436061630644e+00  9.9997332652449811e-01 -2.1170436061630644e+00  7.3038962747140300e-03 -8.6965044344497997e+01
1.348750000000000e-01  8.0560417362373245e-03 -9.8007548544068214e+01  9.9996754943930988e-01 -2.3331512634788600e+00  9.9996754943930988e-01 -2.3331512634788600e+00  8.0560417336703032e-03 -8.6658753998065421e+01
1.473625000000000e-01  8.8101920649510182e-03 -9.8745138646714921e+01  9.9996118982105753e-01 -2.5492881482029661e+00  9.9996118982105753e-01 -2.5492881482029661e+00  8.8101920689457273e-03 -8.6353437675425724e+01
1.598500000000000e-01  9.5665292700959498e-03 -9.9481732289845709e+01  9.9995423986610754e-01 -2.7654569643621083e+00  9.9995423986610754e-01 -2.7654569643621083e+00  9.5665292690214326e-03 -8.6049181628488853e+01
1.723375000000000e-01  1.0325234389589951e-02 -1.0021724966706590e+02  9.9994669320465546e-01 -2.9816603937702202e+00  9.9994669320465546e-01 -2.9816603937702202e+00  1.0325234378072600e-02 -8.5746071107772295e+01
1.848250000000000e-01  1.1086487561062199e-02 -1.0095161193497094e+02  9.9993854291763951e-01 -3.1979011240980082e+00  9.9993854291763951e-01 -3.1979011240980082e+00  1.1086487558820217e-02 -8.5444190322492020e+01
1.973125000000000e-01  1.1850467743878870e-02 -1.0168474146251884e+02  9.9992978053355197e-01 -3.4141818474992380e+00  9.9992978053355197e-01 -3.4141818474992380e+00  1.1850467807218828e-02 -8.5143622314926816e+01
2.098000000000000e-01  1.2617352775343368e-02 -1.0241656171002433e+02  9.9992039800591859e-01 -3.6305052382189125e+00  9.9992039800591859e-01 -3.6305052382189125e+00  1.2617352741657789e-02 -8.4844448718745952e+01
2.222875000000000e-01  1.3387319209957581e-02 -1.0314699769780599e+02  9.9991038573074376e-01 -3.8468739773163994e+00  9.9991038573074376e-01 -3.8468739773163994e+00  1.3387319143880534e-02 -8.4546750223360519e+01
2.347750000000000e-01  1.4160542337472479e-02 -1.0387597561616288e+02  9.9989973452838810e-01 -4.0632907351396605e+00  9.9989973452838810e-01 -4.0632907351396605e+00  1.4160542308948565e-02 -8.4250605866057796e+01
2.472625000000000e-01  1.4937196223250404e-02 -1.0460342295820431e+02  9.9988843365160796e-01 -4.2797581854754601e+00  9.9988843365160796e-01 -4.2797581854754601e+00  1.4937196180054050e-02 -8.3956093402080754e+01
2.597500000000000e-01  1.5717453357455186e-02 -1.0532926888023080e+02  9.9987647275566571e-01 -4.4962789814660997e+00  9.9987647275566571e-01 -4.4962789814660997e+00  1.5717453296737790e-02 -8.3663289064774077e+01
2.722375000000000e-01  1.6501484784715342e-02 -1.0605344396935968e+02  9.9986384092611347e-01 -4.7128557830688012e+00  9.9986384092611347e-01 -4.7128557830688012e+00  1.6501484740779150e-02 -8.3372267553939338e+01
2.847250000000000e-01  1.7289460154634281e-02 -1.0677588035682670e+02  9.9985052565738419e-01 -4.9294912458105813e+00  9.9985052565738419e-01 -4.9294912458105813e+00  1.7289460081648722e-02 -8.3083102082218744e+01
2.972125000000000e-01  1.8081547262508192e-02 -1.0749651190016539e+02  9.9983651584657784e-01 -5.1461880131424413e+00  9.9983651584657784e-01 -5.1461880131424413e+00  1.8081547332173910e-02 -8.2795864179387138e+01
3.097000000000000e-01  1.8877912687598912e-02 -1.0821527380980663e+02  9.9982179678134464e-01 -5.3629487249263983e+00  9.9982179678134464e-01 -5.3629487249263983e+00  1.8877912701668123e-02 -8.2510623639610756e+01
3.221875000000000e-01  1.9678720772704932e-02 -1.0893210347123899e+02  9.9980635516201388e-01 -5.5797760223486943e+00  9.9980635516201388e-01 -5.5797760223486943e+00  1.9678720848428397e-02 -8.2227448625613931e+01
3.346750000000000e-01  2.0484134633994441e-02 -1.0964693954569998e+02  9.9979017803412473e-01 -5.7966725126099821e+00  9.9979017803412473e-01 -5.7966725126099821e+00  2.0484134640969688e-02 -8.1946405516179510e+01
3.471625000000000e-01  2.1294315339642142e-02 -1.1035972264506110e+02  9.9977324987542648e-01 -6.0136408325003998e+00  9.9977324987542648e-01 -6.0136408325003998e+00  2.1294315312816187e-02 -8.1667559030487737e+01
3.596500000000000e-01  2.2109422076820415e-02 -1.1107039532259340e+02  9.9975555654751103e-01 -6.2306836095573903e+00  9.9975555654751103e-01 -6.2306836095573903e+00  2.2109422036838147e-02 -8.1390971898466958e+01
3.721375000000000e-01  2.2929612275564906e-02 -1.1177890175116318e+02  9.9973708223064561e-01 -6.4478034403537032e+00  9.9973708223064561e-01 -6.4478034403537032e+00  2.2929612280217976e-02 -8.1116705126447911e+01
3.846250000000001e-01  2.3755041486225384e-02 -1.1248518794115930e+02  9.9971780942295441e-01 -6.6650028983600942e+00  9.9971780942295441e-01 -6.6650028983600942e+00  2.3755041474079908e-02 -8.0844817869468926e+01
3.971125000000000e-01  2.4585863160705088e-02 -1.1318920195821565e+02  9.9969772214837216e-01 -6.8822846293119104e+00  9.9969772214837216e-01 -6.8822846293119104e+00  2.4585863193065088e-02 -8.0575367315310885e+01
4.096000000000000e-01  2.5422228954483601e-02 -1.1389089339599056e+02  9.9967680250635715e-01 -7.0996511436492176e+00  9.9967680250635715e-01 -7.0996511436492176e+00  2.5422229014146418e-02 -8.0308408868489465e+01
4.220875000000000e-01  2.6264288506212045e-02 -1.1459021414715794e+02  9.9965503423698898e-01 -7.3171050812974485e+00  9.9965503423698898e-01 -7.3171050812974485e+00  2.6264288501812089e-02 -8.0043995986575240e+01
4.345750000000000e-01  2.7112189172437039e-02 -1.1528711775091911e+02  9.9963239714846708e-01 -7.5346489636956342e+00  9.9963239714846708e-01 -7.5346489636956342e+00  2.7112189084803860e-02 -7.9782180177589680e+01
4.470625000000000e-01  2.7966076357582085e-02 -1.1598155960320700e+02  9.9960887243434049e-01 -7.7522853301454600e+00  9.9960887243434049e-01 -7.7522853301454600e+00  2.7966076334067329e-02 -7.9523011082714604e+01
4.595500000000000e-01  2.8826093529392836e-02 -1.1667349713085896e+02  9.9958444182445760e-01 -7.9700168013580432e+00  9.9958444182445760e-01 -7.9700168013580432e+00  2.8826093543029046e-02 -7.9266536420643220e+01
4.720375000000001e-01  2.9692381888955684e-02 -1.1736288986830382e+02  9.9955908406979743e-01 -8.1878458767635838e+00  9.9955908406979743e-01 -8.1878458767635838e+00  2.9692381922824009e-02 -7.9012801916705996e+01
4.845250000000000e-01  3.0565080482234778e-02 -1.1804969870039469e+02  9.9953277914876570e-01 -8.4057750179982733e+00  9.9953277914876570e-01 -8.4057750179982733e+00  3.0565080477277261e-02 -7.8761851424114568e+01
4.970125000000000e-01  3.1444326143931292e-02 -1.1873388701596809e+02  9.9950550474621347e-01 -8.6238068523132068e+00  9.9950550474621347e-01 -8.6238068523132068e+00  3.1444326104536846e-02 -7.8513726827980790e+01
5.095000000000000e-01  3.2330253691605360e-02 -1.1941541943348776e+02  9.9947724047724473e-01 -8.8419438481497821e+00  9.9947724047724473e-01 -8.8419438481497821e+00  3.2330253769703304e-02 -7.8268468270399708e+01
5.219875000000000e-01  3.3222995760203523e-02 -1.2009426320870935e+02  9.9944796435309691e-01 -9.0601885193253882e+00  9.9944796435309691e-01 -9.0601885193253882e+00  3.3222995825277199e-02 -7.8026113793243866e+01
5.344750000000001e-01  3.4122682630090155e-02 -1.2077038695739461e+02  9.9941765132226146e-01 -9.2785432666354932e+00  9.9941765132226146e-01 -9.2785432666354932e+00  3.4122682592617637e-02 -7.7786699605920745e+01
5.469625000000000e-01  3.5029442221324994e-02 -1.2144376110238625e+02  9.9938628112340733e-01 -9.4970106545916408e+00  9.9938628112340733e-01 -9.4970106545916408e+00  3.5029442254065464e-02 -7.7550260126163323e+01
5.594500000000000e-01  3.5943400827484893e-02 -1.2211435827962232e+02  9.9935382712889642e-01 -9.7155930512083071e+00  9.9935382712889642e-01 -9.7155930512083071e+00  3.5943400766474697e-02 -7.7316827875076726e+01
5.719375000000000e-01  3.6864681771455438e-02 -1.2278215255469597e+02  9.9932026669391194e-01 -9.9342930545538657e+00  9.9932026669391194e-01 -9.9342930545538657e+00  3.6864681758392609e-02 -7.7086433525818435e+01
5.844250000000001e-01  3.7793406636604916e-02 -1.2344711991799875e+02  9.9928557436772847e-01 -1.0153112918465016e+01  9.9928557436772847e-01 -1.0153112918465016e+01  3.7793406637204652e-02 -7.6859105927033525e+01
5.969125000000001e-01  3.8729694604308286e-02 -1.2410923835059803e+02  9.9924972393577882e-01 -1.0372055232760763e+01  9.9924972393577882e-01 -1.0372055232760763e+01  3.8729694586959504e-02 -7.6634872184159562e+01
6.094000000000001e-01  3.9673662481391876e-02 -1.2476848708216259e+02  9.9921269062121476e-01 -1.0591122318649791e+01  9.9921269062121476e-01 -1.0591122318649791e+01  3.9673662588266573e-02 -7.6413757607995677e+01
6.218875000000000e-01  4.0625425228298186e-02 -1.2542484748804110e+02  9.9917444622270402e-01 -1.0810316629968463e+01  9.9917444622270402e-01 -1.0810316629968463e+01  4.0625425218242264e-02 -7.6195785773346500e+01
6.343750000000000e-01  4.1585095184099655e-02 -1.2607830243147751e+02  9.9913496545128688e-01 -1.1029640511633865e+01  9.9913496545128688e-01 -1.1029640511633865e+01  4.1585095172024703e-02 -7.5980978575063659e+01
6.468625000000000e-01  4.2552782483854072e-02 -1.2672883638545451e+02  9.9909422019947325e-01 -1.1249096320151811e+01  9.9909422019947325e-01 -1.1249096320151811e+01  4.2552782444174972e-02 -7.5769356297873102e+01
6.593500000000000e-01  4.3528595123082651e-02 -1.2737643552651323e+02  9.9905218169971099e-01 -1.1468686460451391e+01  9.9905218169971099e-01 -1.1468686460451391e+01  4.3528595115777481e-02 -7.5560937372843611e+01
6.718375000000001e-01  4.4512638889235782e-02 -1.2802108778385312e+02  9.9900882110984068e-01 -1.1688413263016830e+01  9.9900882110984068e-01 -1.1688413263016830e+01  4.4512638890895205e-02 -7.5355738782008743e+01
6.843250000000001e-01  4.5505017424016109e-02 -1.2866278227372189e+02  9.9896410968958338e-01 -1.1908279040429381e+01  9.9896410968958338e-01 -1.1908279040429381e+01  4.5505017370043144e-02 -7.5153775829873851e+01
6.968125000000001e-01  4.6505831752863082e-02 -1.2930150978574417e+02  9.9891801878952036e-01 -1.2128286087593860e+01  9.9891801878952036e-01 -1.2128286087593860e+01  4.6505831800050960e-02 -7.4955062482777606e+01
7.093000000000000e-01  4.7515181300503015e-02 -1.2993726271207748e+02  9.9887051614651567e-01 -1.2348436787076528e+01  9.9887051614651567e-01 -1.2348436787076528e+01  4.7515181293737142e-02 -7.4759610944694771e+01
7.217875000000000e-01  4.8533162649076048e-02 -1.3057003469510258e+02  9.9882157208757294e-01 -1.2568733358100634e+01  9.9882157208757294e-01 -1.2568733358100634e+01  4.8533162679144690e-02 -7.4567432030034468e+01
7.342750000000000e-01  4.9559870652296507e-02 -1.3119982108375257e+02  9.9877115428230090e-01 -1.2789178098034494e+01  9.9877115428230090e-01 -1.2789178098034494e+01  4.9559870644891639e-02 -7.4378535109012560e+01
7.467625000000000e-01  5.0595397928193966e-02 -1.3182661818078410e+02  9.9871923315966615e-01 -1.3009773196391501e+01  9.9871923315966615e-01 -1.3009773196391501e+01  5.0595397860790189e-02 -7.4192928176605292e+01
7.592500000000001e-01  5.1639834545990575e-02 -1.3245042388277918e+02  9.9866577333371020e-01 -1.3230520906130057e+01  9.9866577333371020e-01 -1.3230520906130057e+01  5.1639834563210744e-02 -7.4010617980904598e+01
7.717375000000001e-01  5.2693268978606544e-02 -1.3307123746072335e+02  9.9861074478317535e-01 -1.3451423515216421e+01  9.9861074478317535e-01 -1.3451423515216421e+01  5.2693268911071595e-02 -7.3831609582690305e+01
7.842250000000001e-01  5.3755787138114429e-02 -1.3368905917504071e+02  9.9855411195832644e-01 -1.3672483197906214e+01  9.9855411195832644e-01 -1.3672483197906214e+01  5.3755787137074476e-02 -7.3655907133793207e+01
7.967125000000000e-01  5.4827473009149828e-02 -1.3430389083122165e+02  9.9849584319445694e-01 -1.3893702064287764e+01  9.9849584319445694e-01 -1.3893702064287764e+01  5.4827472984692538e-02 -7.3483513373433226e+01
8.092000000000000e-01  5.5908408399239974e-02 -1.3491573499258399e+02  9.9843590147340278e-01 -1.4115082407548043e+01  9.9843590147340278e-01 -1.4115082407548043e+01  5.5908408342674437e-02 -7.3314429754891691e+01
8.216875000000000e-01  5.6998673012099446e-02 -1.3552459578572646e+02  9.9837425389888290e-01 -1.4336626275958016e+01  9.9837425389888290e-01 -1.4336626275958016e+01  5.6998673026231184e-02 -7.3148656629126094e+01
8.341750000000000e-01  5.8098344544128634e-02 -1.3613047821255739e+02  9.9831086486945031e-01 -1.4558335806201653e+01  9.9831086486945031e-01 -1.4558335806201653e+01  5.8098344490164440e-02 -7.2986193284764965e+01
8.466625000000001e-01  5.9207498557429870e-02 -1.3673338842608237e+02  9.9824569752584058e-01 -1.4780213086443640e+01  9.9824569752584058e-01 -1.4780213086443640e+01  5.9207498550036840e-02 -7.2827037777667968e+01
8.591500000000001e-01  6.0326208496291105e-02 -1.3733333357238470e+02  9.9817871547053616e-01 -1.5002260309523013e+01  9.9817871547053616e-01 -1.5002260309523013e+01  6.0326208532581367e-02 -7.2671187123860008e+01
8.716375000000001e-01  6.1454545978616375e-02 -1.3793032163284727e+02  9.9810988341307272e-01 -1.5224479465705253e+01  9.9810988341307272e-01 -1.5224479465705253e+01  6.1454545909713804e-02 -7.2518637409745097e+01
8.841250000000000e-01  6.2592580333026948e-02 -1.3852436176048033e+02  9.9803916237685153e-01 -1.5446872654814772e+01  9.9803916237685153e-01 -1.5446872654814772e+01  6.2592580420474234e-02 -7.2369383562503486e+01
8.966125000000000e-01  6.3740379248685600e-02 -1.3911546402322395e+02  9.9796651496644706e-01 -1.5669441887098834e+01  9.9796651496644706e-01 -1.5669441887098834e+01  6.3740379256450819e-02 -7.2223419728449429e+01
9.091000000000000e-01  6.4898008218245234e-02 -1.3970363928603496e+02  9.9789190244459247e-01 -1.5892189128939835e+01  9.9789190244459247e-01 -1.5892189128939835e+01  6.4898008164409091e-02 -7.2080738946309523e+01
9.215875000000000e-01  6.6065530552053220e-02 -1.4028889921004648e+02  9.9781528650363727e-01 -1.6115116454218278e+01  9.9781528650363727e-01 -1.6115116454218278e+01  6.6065530568924030e-02 -7.1941333679132114e+01
9.340750000000001e-01  6.7243008111712854e-02 -1.4087125630713666e+02  9.9773662760672788e-01 -1.6338225713548770e+01  9.9773662760672788e-01 -1.6338225713548770e+01  6.7243008073135518e-02 -7.1805195146231341e+01
9.465625000000001e-01  6.8430500409125988e-02 -1.4145072392591555e+02  9.9765588622659307e-01 -1.6561518992664165e+01  9.9765588622659307e-01 -1.6561518992664165e+01  6.8430500341569972e-02 -7.1672314058101364e+01
9.590500000000001e-01  6.9628065234692477e-02 -1.4202731601017186e+02  9.9757302156484740e-01 -1.6784998156304070e+01  9.9757302156484740e-01 -1.6784998156304070e+01  6.9628065288733235e-02 -7.1542680237131890e+01
9.715375000000001e-01  7.0835758643511132e-02 -1.4260104737865919e+02  9.9748799263937948e-01 -1.7008665069608433e+01  9.9748799263937948e-01 -1.7008665069608433e+01  7.0835758640315521e-02 -7.1416282791650971e+01
9.840250000000000e-01  7.2053634423356147e-02 -1.4317193335564389e+02  9.9740075857277410e-01 -1.7232521653498754e+01  9.9740075857277410e-01 -1.7232521653498754e+01  7.2053634442536332e-02 -7.1293110022836359e+01
9.965125000000000e-01  7.3281744844736083e-02 -1.4373998992006238e+02  9.9731127800327668e-01 -1.7456569775284297e+01  9.9731127800327668e-01 -1.7456569775284297e+01  7.3281744812032854e-02 -7.1173149641429035e+01
1.009000000000000e+00  7.4520140143674043e-02 -1.4430523385491881e+02  9.9721950905848789e-01 -1.7680811249503993e+01  9.9721950905848789e-01 -1.7680811249503993e+01  7.4520140223644157e-02 -7.1056388699354855e+01
1.021487500000000e+00  7.5768869012110579e-02 -1.4486768223020147e+02  9.9712540773349045e-01 -1.7905247928800406e+01  9.9712540773349045e-01 -1.7905247928800406e+01  7.5768869007525164e-02 -7.0942813646106657e+01
1.033975000000000e+00  7.7027977921464402e-02 -1.4542735287046489e+02  9.9702893202498122e-01 -1.8129881508006729e+01  9.9702893202498122e-01 -1.8129881508006729e+01  7.7027977860188723e-02 -7.0832410246051708e+01
1.046462500000000e+00  7.8297511905144543e-02 -1.4598426391758852e+02  9.9693003743341990e-01 -1.8354713848914848e+01  9.9693003743341990e-01 -1.8354713848914848e+01  7.8297511875981468e-02 -7.0725163852417552e+01
1.058950000000000e+00  7.9577514009205361e-02 -1.4653843416415918e+02  9.9682868142440106e-01 -1.8579746655643184e+01  9.9682868142440106e-01 -1.8579746655643184e+01  7.9577514080476794e-02 -7.0621059150517553e+01
1.071437500000000e+00  8.0868025842814190e-02 -1.4708988285516924e+02  9.9672481800835599e-01 -1.8804981638255423e+01  9.9672481800835599e-01 -1.8804981638255423e+01  8.0868025777379365e-02 -7.0520080427235925e+01
1.083925000000000e+00  8.2169086810948172e-02 -1.4763862948700915e+02  9.9661840278676428e-01 -1.9030420477578637e+01  9.9661840278676428e-01 -1.9030420477578637e+01  8.2169086870957628e-02 -7.0422211444609474e+01
1.096412500000000e+00  8.3480735073297715e-02 -1.4818469407272181e+02  9.9650939165888808e-01 -1.9256064788366320e+01  9.9650939165888808e-01 -1.9256064788366320e+01  8.3480735046948348e-02 -7.0327435485956741e+01
1.108900000000000e+00  8.4803006760387448e-02 -1.4872809709471017e+02  9.9639773674322296e-01 -1.9481916323525535e+01  9.9639773674322296e-01 -1.9481916323525535e+01  8.4803006782317128e-02 -7.0235735551036385e+01
1.121387500000000e+00  8.6135936524472323e-02 -1.4926885916761029e+02  9.9628339353972939e-01 -1.9707976587649991e+01  9.9628339353972939e-01 -1.9707976587649991e+01  8.6135936505351798e-02 -7.0147094027043138e+01
1.133875000000000e+00  8.7479557150179327e-02 -1.4980700134809425e+02  9.9616631467773331e-01 -1.9934247206511898e+01  9.9616631467773331e-01 -1.9934247206511898e+01  8.7479557094005012e-02 -7.0061493051384033e+01
1.146362500000000e+00  8.8833899898281152e-02 -1.5034254502109420e+02  9.9604645429721317e-01 -2.0160729777524534e+01  9.9604645429721317e-01 -2.0160729777524534e+01  8.8833899908518685e-02 -6.9978914531935743e+01
