# MHz S RI R 50

1.000000000000000e-06  2.8057553956825276e-01 -2.7605353254261443e-07  7.1942446043156250e-01 -2.7095379983371324e-07  7.1942446043156261e-01 -2.7090000858590624e-07  2.8057553956825237e-01 -2.9421645840842887e-07
1.010102000000000e+00  1.9613356270704085e-01 -2.5022325785997085e-01  6.3518193004591506e-01 -2.4510222634112366e-01  6.3518193004591517e-01 -2.4510222634112377e-01  1.9533596417614660e-01 -2.6858061061840061e-01
2.020203000000000e+00  2.2412214237692504e-02 -3.8287997944996699e-01  4.6207033198414504e-01 -3.7266833049697501e-01  4.6207033198414493e-01 -3.7266833049697495e-01  1.9269605222672060e-02 -4.1935723021998578e-01
3.030304000000000e+00 -1.3651821186820801e-01 -4.1306075336628484e-01  3.0416747505795377e-01 -3.9784398298531004e-01  3.0416747505795383e-01 -3.9784398298531004e-01 -1.4346463390106867e-01 -4.6724266902998707e-01
4.040405000000000e+00 -2.5114975482959045e-01 -3.9581389359172164e-01  1.9096580593849910e-01 -3.7573699395097843e-01  1.9096580593849918e-01 -3.7573699395097854e-01 -2.6327137059784461e-01 -4.6713608612048124e-01
5.050506000000000e+00 -3.2875875678439825e-01 -3.6387262262940528e-01  1.1515905491384677e-01 -3.3913055838039619e-01  1.1515905491384677e-01 -3.3913055838039619e-01 -3.4732933398779303e-01 -4.5163048471147588e-01
6.060607000000000e+00 -3.8136198471018212e-01 -3.3047793108172985e-01  6.4693868156730464e-02 -3.0130554196649123e-01  6.4693868156730477e-02 -3.0130554196649123e-01 -4.0753941126210480e-01 -4.3384072049021821e-01
7.070708000000000e+00 -4.1785486366172386e-01 -2.9998525249507046e-01  3.0634663490506225e-02 -2.6664852713613740e-01  3.0634663490506218e-02 -2.6664852713613740e-01 -4.5266508895005336e-01 -4.1801707035020053e-01
8.080809000000000e+00 -4.4392354799535605e-01 -2.7338621690226556e-01  7.2531479647772023e-03 -2.3617431958370980e-01  7.2531479647771849e-03 -2.3617431958370982e-01 -4.8825003633834030e-01 -4.0507043656864988e-01
9.090909999999999e+00 -4.6310066564609437e-01 -2.5052453598223029e-01 -9.0261191700584265e-03 -2.0974229965027935e-01 -9.0261191700584491e-03 -2.0974229965027932e-01 -5.1767963323858313e-01 -3.9478903753106048e-01
1.010101100000000e+01 -4.7759974472060346e-01 -2.3091693658678800e-01 -2.0458942143519517e-02 -1.8687786535285777e-01 -2.0458942143519520e-02 -1.8687786535285777e-01 -5.4302059506883338e-01 -3.8665845065616916e-01
1.111111200000000e+01 -4.8883735027967018e-01 -2.1404239113424472e-01 -2.8502554935669881e-02 -1.6706231841669644e-01 -2.8502554935669892e-02 -1.6706231841669650e-01 -5.6554746690941338e-01 -3.8014884796592424e-01
1.212121300000000e+01 -4.9774269545640543e-01 -1.9943434879722133e-01 -3.4124357477749064e-02 -1.4982588709060995e-01 -3.4124357477749070e-02 -1.4982588709060993e-01 -5.8605566618708560e-01 -3.7480453436599892e-01
1.313131400000000e+01 -5.0494060920963280e-01 -1.8670155311617784e-01 -3.7984231634867208e-02 -1.3476942112688617e-01 -3.7984231634867201e-02 -1.3476942112688614e-01 -6.0504695402740938e-01 -3.7026169062820141e-01
1.414141500000000e+01 -5.1086125429047280e-01 -1.7552441985889053e-01 -4.0543831305694986e-02 -1.2156167518696805e-01 -4.0543831305694979e-02 -1.2156167518696805e-01 -6.2284078525466635e-01 -3.6624155008636905e-01
1.515151600000000e+01 -5.1580732647230221e-01 -1.6564443758974315e-01 -4.2133559330507338e-02 -1.0992959214669587e-01 -4.2133559330507331e-02 -1.0992959214669584e-01 -6.3964236690817444e-01 -3.6253667085727354e-01
1.616161700000000e+01 -5.1999616841647667e-01 -1.5685286955015829e-01 -4.2994634759901285e-02 -9.9647825768435838e-02 -4.2994634759901278e-02 -9.9647825768435866e-02 -6.5558498321923731e-01 -3.5899672730240600e-01
1.717171800000000e+01 -5.2358676912307767e-01 -1.4898078513201549e-01 -4.3306186408536014e-02 -9.0529504825399426e-02 -4.3306186408535993e-02 -9.0529504825399426e-02 -6.7075669269000238e-01 -3.5551594374705231e-01
1.818181900000000e+01 -5.2669745111594279e-01 -1.4189086366650616e-01 -4.3203139256665524e-02 -8.2418667071797527e-02 -4.3203139256665531e-02 -8.2418667071797541e-02 -6.8521733148586816e-01 -3.5202266425877476e-01
1.919192000000000e+01 -5.2941769245305204e-01 -1.3547086014212537e-01 -4.2788307766858318e-02 -7.5184248120319777e-02 -4.2788307766858311e-02 -7.5184248120319763e-02 -6.9900939064102141e-01 -3.4847096404905753e-01
2.020202100000000e+01 -5.3181617636034029e-01 -1.2962846573822984e-01 -4.2140760280799550e-02 -6.8715360912930873e-02 -4.2140760280799543e-02 -6.8715360912930873e-02 -7.1216496328395118e-01 -3.4483402520479339e-01
2.121212200000000e+01 -5.3394636648138549e-01 -1.2428728506554744e-01 -4.1321729056567287e-02 -6.2917595487885045e-02 -4.1321729056567287e-02 -6.2917595487885031e-02 -7.2471014404162759e-01 -3.4109897075364787e-01
2.222222300000000e+01 -5.3585042938427307e-01 -1.1938368825842346e-01 -4.0378869436875596e-02 -5.7710107987315414e-02 -4.0378869436875596e-02 -5.7710107987315420e-02 -7.3666776725659533e-01 -3.3726287681112799e-01
2.323232400000000e+01 -5.3756203451219609e-01 -1.1486434194504004e-01 -3.9349385073619153e-02 -5.3023315109272558e-02 -3.9349385073619153e-02 -5.3023315109272558e-02 -7.4805906161075175e-01 -3.3332972362394231e-01
2.424242500000000e+01 -5.3910837986318183e-01 -1.1068426538644094e-01 -3.8262358469529890e-02 -4.8797052664593242e-02 -3.8262358469529884e-02 -4.8797052664593242e-02 -7.5890460168904372e-01 -3.2930808795800481e-01
2.525252600000000e+01 -5.4051167600540140e-01 -1.0680529306493176e-01 -3.7140513898078660e-02 -4.4979091276307878e-02 -3.7140513898078660e-02 -4.4979091276307878e-02 -7.6922480892543110e-01 -3.2520941647011486e-01
2.626262700000000e+01 -5.4179024616385507e-01 -1.0319485262736393e-01 -3.6001567615632821e-02 -4.1523928782494564e-02 -3.6001567615632821e-02 -4.1523928782494564e-02 -7.7904016980412039e-01 -3.2104675124766691e-01
2.727272800000000e+01 -5.4295935085608049e-01 -9.9824988404699527e-02 -3.4859273055456545e-02 -3.8391798870246088e-02 -3.4859273055456545e-02 -3.8391798870246095e-02 -7.8837128269608181e-01 -3.1683380480351342e-01
2.828282900000000e+01 -5.4403181265177147e-01 -9.6671576999295961e-02 -3.3724237232602670e-02 -3.5547850315591989e-02 -3.3724237232602670e-02 -3.5547850315591996e-02 -7.9723880667974523e-01 -3.1258430312478125e-01
2.929293000000000e+01 -5.4501849434293859e-01 -9.3713693796463632e-02 -3.2604563259873078e-02 -3.2961462188548653e-02 -3.2604563259873071e-02 -3.2961462188548646e-02 -8.0566335999463501e-01 -3.0831153262826866e-01
3.030303100000000e+01 -5.4592866851644584e-01 -9.0933098648809177e-02 -3.1506359161879070e-02 -3.0605668505967524e-02 -3.1506359161879070e-02 -3.0605668505967520e-02 -8.1366539841133234e-01 -3.0402804075589185e-01
3.131313200000000e+01 -5.4677030589864939e-01 -8.8313816127133446e-02 -3.0434142849932396e-02 -2.8456671840402625e-02 -3.0434142849932400e-02 -2.8456671840402629e-02 -8.2126509211590115e-01 -2.9974545105008515e-01
3.232323300000000e+01 -5.4755030238270896e-01 -8.5841791183545541e-02 -2.9391165754433863e-02 -2.6493429887014884e-02 -2.9391165754433859e-02 -2.6493429887014881e-02 -8.2848221191079119e-01 -2.9547436238966984e-01
3.333333400000000e+01 -5.4827465935684416e-01 -8.3504605247607805e-02 -2.8379672271471850e-02 -2.4697302366658711e-02 -2.8379672271471850e-02 -2.4697302366658711e-02 -8.3533603040436011e-01 -2.9122430906755620e-01
3.434343500000000e+01 -5.4894862816064871e-01 -8.1291240986876817e-02 -2.7401108250454952e-02 -2.3051748202122680e-02 -2.7401108250454956e-02 -2.3051748202122680e-02 -8.4184524055558330e-01 -2.8700376390673699e-01
3.535353600000000e+01 -5.4957682675613551e-01 -7.9191886442684697e-02 -2.6456288816724211e-02 -2.1542064863029380e-02 -2.6456288816724211e-02 -2.1542064863029377e-02 -8.4802789187650285e-01 -2.8282017093253609e-01
3.636363700000000e+01 -5.5016333470233758e-01 -7.7197771175360197e-02 -2.5545533606163670e-02 -2.0155163289774986e-02 -2.5545533606163667e-02 -2.0155163289774982e-02 -8.5390134336837153e-01 -2.7867999748674577e-01
3.737373800000000e+01 -5.5071177105396796e-01 -7.5301028551668911e-02 -2.4668775793742017e-02 -1.8879372991318640e-02 -2.4668775793742014e-02 -1.8879372991318644e-02 -8.5948223159815285e-01 -2.7458879827867355e-01
3.838383900000000e+01 -5.5122535871714273e-01 -7.3494579480015781e-02 -2.3825649988586165e-02 -1.7704272847718982e-02 -2.3825649988586162e-02 -1.7704272847718982e-02 -8.6478645201650373e-01 -2.7055128587780936e-01
3.939394000000000e+01 -5.5170697798369972e-01 -7.1772033820743944e-02 -2.3015563047772098e-02 -1.6620543895903211e-02 -2.3015563047772091e-02 -1.6620543895903207e-02 -8.6982915154376272e-01 -2.6657140369067467e-01
4.040404100000000e+01 -5.5215921135580204e-01 -7.0127606426494793e-02 -2.2237751059592963e-02 -1.5619840980143306e-02 -2.2237751059592963e-02 -1.5619840980143306e-02 -8.7462473051630008e-01 -2.6265239863291473e-01
4.141414200000000e+01 -5.5258438131097543e-01 -6.8556045344388014e-02 -2.1491325113430403e-02 -1.4694680639566844e-02 -2.1491325113430410e-02 -1.4694680639566844e-02 -8.7918685223116211e-01 -2.5879689158855684e-01
4.242424300000000e+01 -5.5298458230605052e-01 -6.7052570170907086e-02 -2.0775307969516304e-02 -1.3838343007964261e-02 -2.0775307969516304e-02 -1.3838343007964259e-02 -8.8352845851210160e-01 -2.5500694440638833e-01
4.343434400000000e+01 -5.5336170804872709e-01 -6.5612818917329785e-02 -2.0088663339287247e-02 -1.3044785834416896e-02 -2.0088663339287244e-02 -1.3044785834416896e-02 -8.8766178991900313e-01 -2.5128412266971845e-01
4.444444500000000e+01 -5.5371747485720324e-01 -6.4232802038013376e-02 -1.9430319164016975e-02 -1.2308569010755775e-02 -1.9430319164016975e-02 -1.2308569010755773e-02 -8.9159840941932922e-01 -2.4762955383054747e-01
4.545454600000000e+01 -5.5405344176647764e-01 -6.2908862511075705e-02 -1.8799186019319798e-02 -1.1624788224264090e-02 -1.8799186019319798e-02 -1.1624788224264090e-02 -8.9534922852509979e-01 -2.4404398055371612e-01
4.646464700000000e+01 -5.5437102791337434e-01 -6.1637641052887208e-02 -1.8194171563058702e-02 -1.0989016549681204e-02 -1.8194171563058699e-02 -1.0989016549681206e-02 -8.9892453506705206e-01 -2.4052780929537140e-01
4.747474800000000e+01 -5.5467152763277072e-01 -6.0416045703565083e-02 -1.7614191774105729e-02 -1.0397252960001777e-02 -1.7614191774105722e-02 -1.0397252960001779e-02 -9.0233402192689283e-01 -2.3708115426193702e-01
4.848484900000000e+01 -5.5495612361867630e-01 -5.9241225147616157e-02 -1.7058179591375549e-02 -9.8458768759968618e-03 -1.7058179591375549e-02 -9.8458768759968618e-03 -9.0558681617864278e-01 -2.3370387697527964e-01
4.949495000000000e+01 -5.5522589844102743e-01 -5.8110545237723618e-02 -1.6525091450333717e-02 -9.3316079939948782e-03 -1.6525091450333713e-02 -9.3316079939948782e-03 -9.0869150820176436e-01 -2.3039562171807915e-01
5.050505100000000e+01 -5.5548184465876960e-01 -5.7021568274933938e-02 -1.6013912122793787e-02 -8.8514707336358727e-03 -1.6013912122793787e-02 -8.8514707336358744e-03 -9.1165618042349428e-01 -2.2715584715904680e-01
5.151515200000000e+01 -5.5572487372927393e-01 -5.5972034668756609e-02 -1.5523658191292278e-02 -8.4027627348191875e-03 -1.5523658191292276e-02 -8.4027627348191875e-03 -9.1448843542728708e-01 -2.2398385446706218e-01
5.252525300000000e+01 -5.5595582388129805e-01 -5.4959846658783687e-02 -1.5053380428483734e-02 -7.9830269081796607e-03 -1.5053380428483734e-02 -7.9830269081796589e-03 -9.1719542323027248e-01 -2.2087881222136821e-01
5.353535400000000e+01 -5.5617546709194032e-01 -5.3983053827646191e-02 -1.4602165302269364e-02 -7.5900266080361541e-03 -1.4602165302269368e-02 -7.5900266080361550e-03 -9.1978386758697828e-01 -2.1783977841532962e-01
5.454545500000000e+01 -5.5638451528613631e-01 -5.3039840175270719e-02 -1.4169135786696480e-02 -7.2217235524309467e-03 -1.4169135786696482e-02 -7.2217235524309475e-03 -9.2226009122085850e-01 -2.1486571983661421e-01
5.555555600000000e+01 -5.5658362585918164e-01 -5.2128512557935408e-02 -1.3753451625371078e-02 -6.8762581629340288e-03 -1.3753451625371078e-02 -6.8762581629340288e-03 -9.2463003992095250e-01 -2.1195552908898946e-01
5.656565700000000e+01 -5.5677340660785390e-01 -5.1247490323748562e-02 -1.3354309166859452e-02 -6.5519320384301799e-03 -1.3354309166859452e-02 -6.5519320384301808e-03 -9.2689930546960386e-01 -2.0910803950167545e-01
5.757575800000000e+01 -5.5695442014327479e-01 -5.0395295999816209e-02 -1.2970940869215141e-02 -6.2471923130719576e-03 -1.2970940869215141e-02 -6.2471923130719585e-03 -9.2907314738976288e-01 -2.0632203815237668e-01
5.858585900000000e+01 -5.5712718784829174e-01 -4.9570546906320866e-02 -1.2602614552461878e-02 -5.9606176797604906e-03 -1.2602614552461875e-02 -5.9606176797604897e-03 -9.3115651351803896e-01 -2.0359627721046042e-01
5.959596000000000e+01 -5.5729219343344505e-01 -4.8771947589618669e-02 -1.2248632462860289e-02 -5.6909058875791278e-03 -1.2248632462860287e-02 -5.6909058875791278e-03 -9.3315405942317642e-01 -2.0092948378772721e-01
6.060606100000000e+01 -5.5744988613826074e-01 -4.7998282980802540e-02 -1.1908330200492595e-02 -5.4368625451256484e-03 -1.1908330200492593e-02 -5.4368625451256484e-03 -9.3507016669980270e-01 -1.9832036846614792e-01
6.161616200000000e+01 -5.5760068361839177e-01 -4.7248412198384840e-02 -1.1581075551627613e-02 -5.1973910821541333e-03 -1.1581075551627613e-02 -5.1973910821541333e-03 -9.3690896017471115e-01 -1.9576763265501548e-01
6.262626300000000e+01 -5.5774497455386185e-01 -4.6521262924180684e-02 -1.1266267259081041e-02 -4.9714837397658472e-03 -1.1266267259081041e-02 -4.9714837397658463e-03 -9.3867432406817530e-01 -1.9326997491426276e-01
6.363636400000000e+01 -5.5788312100917070e-01 -4.5815826290403996e-02 -1.0963333757037152e-02 -4.7582134749365101e-03 -1.0963333757037152e-02 -4.7582134749365101e-03 -9.4036991715622453e-01 -1.9082609636627149e-01
6.464646500000001e+01 -5.5801546057216267e-01 -4.5131152223655872e-02 -1.0671731891280178e-02 -4.5567266787420761e-03 -1.0671731891280178e-02 -4.5567266787420761e-03 -9.4199918698185181e-01 -1.8843470530532883e-01
6.565656600000000e+01 -5.5814230829526368e-01 -4.4466345198092436e-02 -1.0390945641278184e-02 -4.3662366195098556e-03 -1.0390945641278185e-02 -4.3662366195098556e-03 -9.4356538316406535e-01 -1.8609452110192853e-01
6.666666700000000e+01 -5.5826395845983801e-01 -4.3820560355760582e-02 -1.0120484856888415e-02 -4.1860175325032006e-03 -1.0120484856888417e-02 -4.1860175325032006e-03 -9.4507156985373875e-01 -1.8380427748830999e-01
6.767676800000000e+01 -5.5838068618195935e-01 -4.3192999957029181e-02 -9.8598840194636557e-03 -4.0153992868410650e-03 -9.8598840194636574e-03 -4.0153992868410650e-03 -9.4652063738464032e-01 -1.8156272530189688e-01
6.868686900000000e+01 -5.5849274887575606e-01 -4.2582910128328516e-02 -9.6087010347116510e-03 -3.8537625683269152e-03 -9.6087010347116510e-03 -3.8537625683269152e-03 -9.4791531316691435e-01 -1.7936863475456971e-01
6.969696999999999e+01 -5.5860038758863417e-01 -4.1989577878137035e-02 -9.3665160626945666e-03 -3.7005345238599035e-03 -9.3665160626945649e-03 -3.7005345238599026e-03 -9.4925817186882644e-01 -1.7722079728789042e-01
7.070707100000000e+01 -5.5870382822107356e-01 -4.1412328355408576e-02 -9.1329303887700500e-03 -3.5551848192506234e-03 -9.1329303887700500e-03 -3.5551848192506225e-03 -9.5055164493085953e-01 -1.7511802706741986e-01
7.171717200000001e+01 -5.5880328264227297e-01 -4.0850522327472993e-02 -8.9075653380017820e-03 -3.4172220676725170e-03 -8.9075653380017820e-03 -3.4172220676725175e-03 -9.5179802945436165e-01 -1.7305916216305428e-01
7.272727300000000e+01 -5.5889894971168974e-01 -4.0303553856933884e-02 -8.6900612345496338e-03 -3.2861905907424806e-03 -8.6900612345496338e-03 -3.2861905907424810e-03 -9.5299949650491655e-01 -1.7104306545677136e-01
7.373737400000000e+01 -5.5899101621543246e-01 -3.9770848159272155e-02 -8.4800764067412496e-03 -3.1616674784215506e-03 -8.4800764067412514e-03 -3.1616674784215510e-03 -9.5415809886856917e-01 -1.6906862531426434e-01
7.474747499999999e+01 -5.5907965772551038e-01 -3.9251859624787847e-02 -8.2772862378907471e-03 -3.0432599176300830e-03 -8.2772862378907471e-03 -3.0432599176300830e-03 -9.5527577829694255e-01 -1.6713475605258035e-01
7.575757600000000e+01 -5.5916503938910600e-01 -3.8746069990207452e-02 -8.0813822624336007e-03 -2.9306027627423585e-03 -8.0813822624336007e-03 -2.9306027627423589e-03 -9.5635437227523923e-01 -1.6524039823201708e-01
7.676767700000001e+01 -5.5924731665428884e-01 -3.8252986646782262e-02 -7.8920713065655408e-03 -2.8233563240171664e-03 -7.8920713065655391e-03 -2.8233563240171664e-03 -9.5739562034508086e-01 -1.6338451879710722e-01
7.777777800000000e+01 -5.5932663593793486e-01 -3.7772141073027468e-02 -7.7090746722843651e-03 -2.7212043525795728e-03 -7.7090746722843643e-03 -2.7212043525795724e-03 -9.5840117001220781e-01 -1.6156611108849392e-01
7.878787900000000e+01 -5.5940313524103313e-01 -3.7303087381428811e-02 -7.5321273635208475e-03 -2.6238522028357906e-03 -7.5321273635208484e-03 -2.6238522028357906e-03 -9.5937258226713906e-01 -1.5978419474482386e-01
7.979798000000000e+01 -5.5947694471604370e-01 -3.6845400969486096e-02 -7.3609773528929686e-03 -2.5310251552127603e-03 -7.3609773528929669e-03 -2.5310251552127607e-03 -9.6031133674511815e-01 -1.5803781551142082e-01
8.080808100000000e+01 -5.5954818719050647e-01 -3.6398677266392662e-02 -7.1953848875151915e-03 -2.4424668838979031e-03 -7.1953848875151915e-03 -2.4424668838979036e-03 -9.6121883654991702e-01 -1.5632604497041477e-01
8.181818199999999e+01 -5.5961697865069981e-01 -3.5962530567478161e-02 -7.0351218322313343e-03 -2.3579380558391518e-03 -7.0351218322313334e-03 -2.3579380558391518e-03 -9.6209641276445501e-01 -1.5464798020515663e-01
8.282828300000000e+01 -5.5968342868877263e-01 -3.5536592949281041e-02 -6.8799710486078256e-03 -2.2772150486747322e-03 -6.8799710486078247e-03 -2.2772150486747326e-03 -9.6294532866963989e-01 -1.5300274341013162e-01
8.383838400000000e+01 -5.5974764091645124e-01 -3.5120513258779129e-02 -6.7297258080172544e-03 -2.2000887765164607e-03 -6.7297258080172544e-03 -2.2000887765164603e-03 -9.6376678369137048e-01 -1.5138948145614348e-01
8.484848500000000e+01 -5.5980971334813090e-01 -3.4713956170897876e-02 -6.5841892371545857e-03 -2.1263636136280178e-03 -6.5841892371545849e-03 -2.1263636136280182e-03 -9.6456191709429051e-01 -1.4980736541928608e-01
8.585858600000000e+01 -5.5986973875589541e-01 -3.4316601308948973e-02 -6.4431737943558077e-03 -2.0558564070363213e-03 -6.4431737943558068e-03 -2.0558564070363213e-03 -9.6533181143958047e-01 -1.4825559008110747e-01
8.686868699999999e+01 -5.5992780499878003e-01 -3.3928142423127403e-02 -6.3065007751277550e-03 -1.9883955700037894e-03 -6.3065007751277533e-03 -1.9883955700037890e-03 -9.6607749582288172e-01 -1.4673337340638989e-01
8.787878800000000e+01 -5.5998399532837217e-01 -3.3548286622626301e-02 -6.1739998453449584e-03 -1.9238202490841601e-03 -6.1739998453449576e-03 -1.9238202490841601e-03 -9.6679994890732179e-01 -1.4523995600411477e-01
8.888888900000001e+01 -5.6003838867266664e-01 -3.3176753657314317e-02 -6.0455086006228993e-03 -1.8619795581953584e-03 -6.0455086006228984e-03 -1.8619795581953579e-03 -9.6750010176555801e-01 -1.4377460057642028e-01
8.989899000000000e+01 -5.6009105989990615e-01 -3.2813275245270897e-02 -5.9208721504344589e-03 -1.8027318737791338e-03 -5.9208721504344598e-03 -1.8027318737791336e-03 -9.6817884054378101e-01 -1.4233659135969856e-01
9.090909100000000e+01 -5.6014208006400035e-01 -3.2457594442788396e-02 -5.7999427255965305e-03 -1.7459441856871780e-03 -5.7999427255965305e-03 -1.7459441856871782e-03 -9.6883700895970415e-01 -1.4092523356139261e-01
9.191919200000000e+01 -5.6019151663296318e-01 -3.2109465053736373e-02 -5.6825793078152812e-03 -1.6914914989445077e-03 -5.6825793078152803e-03 -1.6914914989445075e-03 -9.6947541064572851e-01 -1.3953985279554407e-01
