# MHz S MA R 50

1.000000000000000e-06  2.8057553956838854e-01 -5.6372349345572444e-05  7.1942446043161357e-01 -2.1579067751172688e-05  7.1942446043161357e-01 -2.1574783755223709e-05  2.8057553956840664e-01 -6.0081364740572560e-05
1.010102000000000e+00  3.1793089373984118e-01 -5.1909435569643733e+01  6.8083124606192180e-01 -2.1100464628804648e+01  6.8083124606192202e-01 -2.1100464628804655e+01  3.3210191703869724e-01 -5.3971983256296070e+01
2.020203000000000e+00  3.8353537778234142e-01 -8.6649964221058767e+01  5.9362503001081468e-01 -3.8886822947072780e+01  5.9362503001081457e-01 -3.8886822947072780e+01  4.1979971917953418e-01 -8.7369090357978294e+01
3.030304000000000e+00  4.3503609981611380e-01 -1.0828892480143591e+02  5.0079705238823702e-01 -5.2600656018476286e+01  5.0079705238823702e-01 -5.2600656018476279e+01  4.8877173909979055e-01 -1.0706885458789749e+02
4.040405000000000e+00  4.6876949315330035e-01 -1.2239572960676419e+02  4.2148099323819821e-01 -6.3058351448814463e+01  4.2148099323819832e-01 -6.3058351448814463e+01  5.3621631598864028e-01 -1.1940500024690598e+02
5.050506000000000e+00  4.9039331730930502e-01 -1.3209779914402529e+02  3.5814961057643169e-01 -7.1243979508693826e+01  3.5814961057643169e-01 -7.1243979508693826e+01  5.6974359230194638e-01 -1.2756231640174718e+02
6.060607000000000e+00  5.0463117849985228e-01 -1.3908868750741502e+02  3.0817255912362057e-01 -7.7881901491643447e+01  3.0817255912362057e-01 -7.7881901491643447e+01  5.9523620730541471e-01 -1.3320953289129289e+02
7.070708000000000e+00  5.1438685714186849e-01 -1.4432477810130544e+02  2.6840253283277332e-01 -8.3446148181297815e+01  2.6840253283277332e-01 -8.3446148181297815e+01  6.1615254106294504e-01 -1.3727883196379619e+02
8.080809000000000e+00  5.2135222264503467e-01 -1.4837354504742112e+02  2.3628566902422846e-01 -8.8240942582962234e+01  2.3628566902422848e-01 -8.8240942582962248e+01  6.3440535666583653e-01 -1.4031963397609422e+02
9.090909999999999e+00  5.2652138574892426e-01 -1.5158784892084716e+02  2.0993642630534529e-01 -9.2464165014777009e+01  2.0993642630534526e-01 -9.2464165014777024e+01  6.5103808400487218e-01 -1.4267039828682815e+02
1.010101100000000e+01  5.3049424856431038e-01 -1.5419648005809270e+02  1.8799442776974193e-01 -9.6247723928133027e+01  1.8799442776974193e-01 -9.6247723928133027e+01  6.6661542446356514e-01 -1.4454718839007606e+02
1.111111200000000e+01  5.3364417005239928e-01 -1.5635330505961912e+02  1.6947629295161773e-01 -9.9682028211074808e+01  1.6947629295161779e-01 -9.9682028211074808e+01  6.8143751286341248e-01 -1.4609185422193758e+02
1.212121300000000e+01  5.3621063991716889e-01 -1.5816512968135572e+02  1.5366283941069619e-01 -1.0283081557185800e+02  1.5366283941069619e-01 -1.0283081557185800e+02  6.9565773398367525e-01 -1.4739956290008547e+02
1.313131400000000e+01  5.3835164044050987e-01 -1.5970815011165462e+02  1.4001999401430940e-01 -1.0574028170764529e+02  1.4001999401430937e-01 -1.0574028170764529e+02  7.0934867034815818e-01 -1.4853523100067039e+02
1.414141500000000e+01  5.4017408592233973e-01 -1.6103803174656753e+02  1.2814461803449484e-01 -1.0844482057430224e+02  1.2814461803449484e-01 -1.0844482057430224e+02  7.2253962990711851e-01 -1.4954370839548582e+02
1.515151600000000e+01  5.4175204452491588e-01 -1.6219629206960116e+02  1.1772744816480259e-01 -1.1097071333051844e+02  1.1772744816480256e-01 -1.1097071333051844e+02  7.3523818947342956e-01 -1.5045629124727233e+02
1.616161700000000e+01  5.4313795471678816e-01 -1.6321446448011773e+02  1.0852754396241471e-01 -1.1333854863395253e+02  1.0852754396241472e-01 -1.1333854863395251e+02  7.4744251982102661e-01 -1.5129499525050281e+02
1.717171800000000e+01  5.4436970813895846e-01 -1.6411688728129005e+02  1.0035445692734771e-01 -1.1556484108734774e+02  1.0035445692734771e-01 -1.1556484108734772e+02  7.5914829055118571e-01 -1.5207541688023116e+02
1.818181900000000e+01  5.4547522602228049e-01 -1.6492261634562036e+02  9.3055617366834098e-02 -1.1766313237539349e+02  9.3055617366834112e-02 -1.1766313237539349e+02  7.7035235283632397e-01 -1.5280867972038439e+02
1.919192000000000e+01  5.4647547706183641e-01 -1.6564676471113674e+02  8.6507285513817825e-02 -1.1964475238042691e+02  8.6507285513817811e-02 -1.1964475238042691e+02  7.8105450577383628e-01 -1.5350277448464942e+02
2.020202100000000e+01  5.4738650382355969e-01 -1.6630145864397835e+02  8.0607967983557072e-02 -1.2151935305705761e+02  8.0607967983557058e-02 -1.2151935305705759e+02  7.9125813731561179e-01 -1.5416348994504526e+02
2.121212200000000e+01  5.4822080543120455e-01 -1.6689653159145868e+02  7.5273561854089843e-02 -1.2329528818632764e+02  7.5273561854089829e-02 -1.2329528818632764e+02  8.0097022461888967e-01 -1.5479506389696294e+02
2.222222300000000e+01  5.4898829467803256e-01 -1.6744003558837636e+02  7.0433725309029707e-02 -1.2497988723033991e+02  7.0433725309029721e-02 -1.2497988723033991e+02  8.1020099197034767e-01 -1.5540064041840731e+02
2.323232400000000e+01  5.4969696924701938e-01 -1.6793862333429456e+02  6.6029130320254661e-02 -1.2657965556814651e+02  6.6029130320254661e-02 -1.2657965556814651e+02  8.1896340840673232e-01 -1.5598259198258609e+02
2.424242500000000e+01  5.5035338814514523e-01 -1.6839783721372999e+02  6.2009357555145597e-02 -1.2810042300756885e+02  6.2009357555145590e-02 -1.2810042300756885e+02  8.2727263417773167e-01 -1.5654274669347618e+02
2.525252600000000e+01  5.5096301375396695e-01 -1.6882233040984912e+02  5.8331264555603536e-02 -1.2954745559312929e+02  5.8331264555603536e-02 -1.2954745559312929e+02  8.3514547907966230e-01 -1.5708254861795430e+02
2.626262700000000e+01  5.5153046012625084e-01 -1.6921603782683565e+02  5.4957706759986472e-02 -1.3092554111685385e+02  5.4957706759986472e-02 -1.3092554111685385e+02  8.4259990663132289e-01 -1.5760317079945631e+02
2.727272800000000e+01  5.5205967520917043e-01 -1.6958230947922510e+02  5.1856524550419954e-02 -1.3223905560532879e+02  5.1856524550419961e-02 -1.3223905560532879e+02  8.4965459996761994e-01 -1.5810559474744355e+02
2.828282900000000e+01  5.5255407606559470e-01 -1.6992401551265618e+02  4.8999733050095258e-02 -1.3349201590612751e+02  4.8999733050095265e-02 -1.3349201590612751e+02  8.5632859431187358e-01 -1.5859066616197822e+02
2.929293000000000e+01  5.5301665036490633e-01 -1.7024362957122531e+02  4.6362868062428883e-02 -1.3468812200795972e+02  4.6362868062428869e-02 -1.3468812200795972e+02  8.6264097444385102e-01 -1.5905913382022294e+02
3.030303100000000e+01  5.5345003346102839e-01 -1.7054329548651830e+02  4.3924453466542911e-02 -1.3583079169023608e+02  4.3924453466542911e-02 -1.3583079169023608e+02  8.6861063206579414e-01 -1.5951167655175132e+02
3.131313200000000e+01  5.5385656765216729e-01 -1.7082488101177361e+02  4.1665563997652248e-02 -1.3692318936831117e+02  4.1665563997652248e-02 -1.3692318936831117e+02  8.7425607630336699e-01 -1.5994892181112775e+02
3.232323300000000e+01  5.5423834832407215e-01 -1.7109002141409496e+02  3.9569463625158979e-02 -1.3796825048543374e+02  3.9569463625158972e-02 -1.3796825048543374e+02  8.7959529005229398e-01 -1.6037145834678762e+02
3.333333400000000e+01  5.5459726035243118e-01 -1.7134015506825381e+02  3.7621304369018282e-02 -1.3896870243660968e+02  3.7621304369018282e-02 -1.3896870243660968e+02  8.8464562502936139e-01 -1.6077984474511450e+02
3.434343500000000e+01  5.5493500720412714e-01 -1.7157655269875082e+02  3.5807873834217199e-02 -1.3992708274860212e+02  3.5807873834217199e-02 -1.3992708274860212e+02  8.8942372890693777e-01 -1.6117461511400910e+02
3.535353600000000e+01  5.5525313451226410e-01 -1.7180034154466480e+02  3.4117382322166677e-02 -1.4084575505324963e+02  3.4117382322166677e-02 -1.4084575505324963e+02  8.9394549861096939e-01 -1.6155628280218437e+02
3.636363700000000e+01  5.5555304942484074e-01 -1.7201252544076647e+02  3.2539282328612147e-02 -1.4172692325661905e+02  3.2539282328612140e-02 -1.4172692325661905e+02  8.9822605462406968e-01 -1.6192534278711872e+02
3.737373800000000e+01  5.5583603668558346e-01 -1.7221400159447040e+02  3.1064114725954189e-02 -1.4257264420908149e+02  3.1064114725954186e-02 -1.4257264420908149e+02  9.0227973188644051e-01 -1.6228227317634241e+02
3.838383900000000e+01  5.5610327215885635e-01 -1.7240557467420993e+02  2.9683377072784279e-02 -1.4338483911054726e+02  2.9683377072784279e-02 -1.4338483911054726e+02  9.0612008358794738e-01 -1.6262753613230720e+02
3.939394000000000e+01  5.5635583433147584e-01 -1.7258796869824403e+02  2.8389410381366113e-02 -1.4416530383325505e+02  2.8389410381366106e-02 -1.4416530383325505e+02  9.0975989477496688e-01 -1.6296157843531080e+02
4.040404100000000e+01  5.5659471419352402e-01 -1.7276183711457676e+02  2.7175301367848567e-02 -1.4491571830632498e+02  2.7175301367848567e-02 -1.4491571830632498e+02  9.1321120324836913e-01 -1.6328483183092004e+02
4.141414200000000e+01  5.5682082380429643e-01 -1.7292777138581926e+02  2.6034797756656857e-02 -1.4563765507793033e+02  2.6034797756656861e-02 -1.4563765507793033e+02  9.1648532570469365e-01 -1.6359771326023190e+02
4.242424300000000e+01  5.5703500377868675e-01 -1.7308630833241409e+02  2.4962234644244512e-02 -1.4633258714968858e+02  2.4962234644244512e-02 -1.4633258714968858e+02  9.1959288747589452e-01 -1.6390062503748899e+02
4.343434400000000e+01  5.5723802987671522e-01 -1.7323793643989157e+02  2.3952470273961874e-02 -1.4700189516177105e+02  2.3952470273961871e-02 -1.4700189516177105e+02  9.2254385456090837e-01 -1.6419395501597415e+02
4.444444500000000e+01  5.5743061883959344e-01 -1.7338310129788604e+02  2.3000829852596681e-02 -1.4764687399487843e+02  2.3000829852596681e-02 -1.4764687399487846e+02  9.2534756692250175e-01 -1.6447807676681646e+02
4.545454600000000e+01  5.5761343358613324e-01 -1.7352221030833869e+02  2.2103056264869303e-02 -1.4826873884562144e+02  2.2103056264869303e-02 -1.4826873884562144e+02  9.2801277225315915e-01 -1.6475334978424775e+02
4.646464700000000e+01  5.5778708786085740e-01 -1.7365563677599758e+02  2.1255266726041840e-02 -1.4886863082426134e+02  2.1255266726041836e-02 -1.4886863082426134e+02  9.3054765960156294e-01 -1.6502011972343473e+02
4.747474800000000e+01  5.5795215040801371e-01 -1.7378372347471873e+02  2.0453914563458010e-02 -1.4944762211767812e+02  2.0453914563458003e-02 -1.4944762211767812e+02  9.3295989240317001e-01 -1.6527871867218926e+02
4.848484900000000e+01  5.5810914873244832e-01 -1.7390678576719233e+02  1.9695755441945125e-02 -1.5000672075546899e+02  1.9695755441945125e-02 -1.5000672075546899e+02  9.3525664058045999e-01 -1.6552946545484545e+02
4.949495000000000e+01  5.5825857249797040e-01 -1.7402511434280112e+02  1.8977817450789265e-02 -1.5054687501296408e+02  1.8977817450789265e-02 -1.5054687501296405e+02  9.3744461147571667e-01 -1.6577266596482644e+02
5.050505100000000e+01  5.5840087660572524e-01 -1.7413897762776210e+02  1.8297374555519549e-02 -1.5106897748147935e+02  1.8297374555519549e-02 -1.5106897748147935e+02  9.3953007945616029e-01 -1.6600861352150892e+02
5.151515200000000e+01  5.5853648398862710e-01 -1.7424862391304814e+02  1.7651922989231000e-02 -1.5157386883316357e+02  1.7651922989231000e-02 -1.5157386883316357e+02  9.4151891409157018e-01 -1.6623758924664557e+02
5.252525300000000e+01  5.5866578815271117e-01 -1.7435428323845224e+02  1.7039160218196719e-02 -1.5206234130522907e+02  1.7039160218196719e-02 -1.5206234130522907e+02  9.4341660685133222e-01 -1.6645986245562358e+02
5.353535400000000e+01  5.5878915549203045e-01 -1.7445616906526425e+02  1.6456966167112824e-02 -1.5253514192611115e+02  1.6456966167112827e-02 -1.5253514192611115e+02  9.4522829630375538e-01 -1.6667569105908552e+02
5.454545500000000e+01  5.5890692740026682e-01 -1.7455447976513420e+02  1.5903386432127551e-02 -1.5299297550410907e+02  1.5903386432127554e-02 -1.5299297550410907e+02  9.4695879182761311e-01 -1.6688532197081662e+02
5.555555600000000e+01  5.5901942219931533e-01 -1.7464939994862141e+02  1.5376617246154604e-02 -1.5343650739729060e+02  1.5376617246154604e-02 -1.5343650739729060e+02  9.4861259586599189e-01 -1.6708899151824664e+02
5.656565700000000e+01  5.5912693690270132e-01 -1.7474110165352039e+02  1.4874991991939835e-02 -1.5386636608184867e+02  1.4874991991939836e-02 -1.5386636608184867e+02  9.5019392476708053e-01 -1.6728692585238161e+02
5.757575800000000e+01  5.5922974882962062e-01 -1.7482974541019516e+02  1.4396969084817158e-02 -1.5428314553466092e+02  1.4396969084817159e-02 -1.5428314553466092e+02  9.5170672826668135e-01 -1.6747934135443882e+02
5.858585900000000e+01  5.5932811708364660e-01 -1.7491548119874784e+02  1.3941121069777610e-02 -1.5468740744449997e+02  1.3941121069777608e-02 -1.5468740744449997e+02  9.5315470767395805e-01 -1.6766644503689707e+02
5.959596000000000e+01  5.5942228390862736e-01 -1.7499844931081455e+02  1.3506124796977026e-02 -1.5507968326515740e+02  1.3506124796977024e-02 -1.5507968326515740e+02  9.5454133282595766e-01 -1.6784843493707297e+02
6.060606100000000e+01  5.5951247593299025e-01 -1.7507878112706004e+02  1.3090752556616221e-02 -1.5546047612266256e+02  1.3090752556616221e-02 -1.5546047612266256e+02  9.5586985787843814e-01 -1.6802550050170032e+02
6.161616200000000e+01  5.5959890531251610e-01 -1.7515659981997862e+02  1.2693864068649944e-02 -1.5583026258779088e+02  1.2693864068649944e-02 -1.5583026258779088e+02  9.5714333600093959e-01 -1.6819782296130950e+02
6.262626300000000e+01  5.5968177078063630e-01 -1.7523202099036237e+02  1.2314399235358485e-02 -1.5618949432415221e+02  1.2314399235358485e-02 -1.5618949432415221e+02  9.5836463304329289e-01 -1.6836557569348835e+02
6.363636400000000e+01  5.5976125861442527e-01 -1.7530515324473029e+02  1.1951371575733796e-02 -1.5653859962132316e+02  1.1951371575733796e-02 -1.5653859962132316e+02  9.5953644023913653e-01 -1.6852892457434973e+02
6.464646500000001e+01  5.5983754352365267e-01 -1.7537609872009835e+02  1.1603862270129123e-02 -1.5687798482172812e+02  1.1603862270129123e-02 -1.5687798482172812e+02  9.6066128600978606e-01 -1.6868802831774181e+02
6.565656600000000e+01  5.5991078946957351e-01 -1.7544495356168403e+02  1.1271014751899979e-02 -1.5720803564927886e+02  1.1271014751899981e-02 -1.5720803564927886e+02  9.6174154692916614e-01 -1.6884303880191467e+02
6.666666700000000e+01  5.5998115041949459e-01 -1.7551180835846120e+02  1.0952029789994726e-02 -1.5752911844714401e+02  1.0952029789994726e-02 -1.5752911844714401e+02  9.6277945790757802e-01 -1.6899410138350621e+02
6.767676800000000e+01  5.6004877104259743e-01 -1.7557674854089561e+02  1.0646161012780077e-02 -1.5784158133143487e+02  1.0646161012780079e-02 -1.5784158133143487e+02  9.6377712164902418e-01 -1.6914135519883564e+02
6.868686900000000e+01  5.6011378735199480e-01 -1.7563985474468402e+02  1.0352710828932991e-02 -1.5814575526705491e+02  1.0352710828932991e-02 -1.5814575526705491e+02  9.6473651743367084e-01 -1.6928493345259454e+02
6.969696999999999e+01  5.6017632729753619e-01 -1.7570120314387853e+02  1.0071026706100742e-02 -1.5844195507146918e+02  1.0071026706100741e-02 -1.5844195507146918e+02  9.6565950927389621e-01 -1.6942496369410844e+02
7.070707100000000e+01  5.6023651131348007e-01 -1.7576086575639451e+02  9.8004977723149117e-03 -1.5873048035169398e+02  9.8004977723149117e-03 -1.5873048035169398e+02  9.6654785348928707e-01 -1.6956156808140861e+02
7.171717200000001e+01  5.6029445282476908e-01 -1.7581891072456534e+02  9.5405517089190827e-03 -1.5901161637939342e+02  9.5405517089190827e-03 -1.5901161637939339e+02  9.6740320574297467e-01 -1.6969486363340678e+02
7.272727300000000e+01  5.6035025871532229e-01 -1.7587540257311380e+02  9.2906519071003155e-03 -1.5928563490858517e+02  9.2906519071003155e-03 -1.5928563490858517e+02  9.6822712757878970e-01 -1.6982496247050378e+02
7.373737400000000e+01  5.6040402976144787e-01 -1.7593040244665417e+02  9.0502948630571192e-03 -1.5955279494010907e+02  9.0502948630571210e-03 -1.5955279494010907e+02  9.6902109249599788e-01 -1.6995197204399540e+02
7.474747499999999e+01  5.6045586103321099e-01 -1.7598396832861246e+02  8.8190077894414760e-03 -1.5981334343668689e+02  8.8190077894414760e-03 -1.5981334343668689e+02  9.6978649159574548e-01 -1.7007599535465800e+02
7.575757600000000e+01  5.6050584226634648e-01 -1.7603615524325389e+02  8.5963464230200473e-03 -1.6006751599210813e+02  8.5963464230200473e-03 -1.6006751599210813e+02  9.7052463883089668e-01 -1.7019713116091174e+02
7.676767700000001e+01  5.6055405820707538e-01 -1.7608701544233256e+02  8.3818930105485634e-03 -1.6031553745780215e+02  8.3818930105485617e-03 -1.6031553745780215e+02  9.7123677588861124e-01 -1.7031547417696692e+02
7.777777800000000e+01  5.6060058893198450e-01 -1.7613659857772205e+02  8.1752544566731557e-03 -1.6055762252980867e+02  8.1752544566731557e-03 -1.6055762252980867e+02  9.7192407673286307e-01 -1.7043111526136212e+02
7.878787900000000e+01  5.6064551014494368e-01 -1.7618495186124994e+02  7.9760606192923172e-03 -1.6079397629892662e+02  7.9760606192923189e-03 -1.6079397629892662e+02  9.7258765183204454e-01 -1.7054414159630190e+02
7.979798000000000e+01  5.6068889345286765e-01 -1.7623212021283683e+02  7.7839627392558191e-03 -1.6102479476661227e+02  7.7839627392558173e-03 -1.6102479476661227e+02  9.7322855209494219e-01 -1.7065463685819796e+02
8.080808100000000e+01  5.6073080662196995e-01 -1.7627814639793343e+02  7.5986319925641843e-03 -1.6125026532900071e+02  7.5986319925641843e-03 -1.6125026532900071e+02  9.7384777253658505e-01 -1.7076268137981037e+02
8.181818199999999e+01  5.6077131381602840e-01 -1.7632307115515238e+02  7.4197581543816163e-03 -1.6147056723124768e+02  7.4197581543816154e-03 -1.6147056723124768e+02  9.7444625569385157e-01 -1.7086835230437774e+02
8.282828300000000e+01  5.6081047581804611e-01 -1.7636693331490653e+02  7.2470483652030725e-03 -1.6168587199422339e+02  7.2470483652030716e-03 -1.6168587199422339e+02  9.7502489480920806e-01 -1.7097172373211333e+02
8.383838400000000e+01  5.6084835023657909e-01 -1.7640976990978803e+02  7.0802259904361236e-03 -1.6189634381543831e+02  7.0802259904361236e-03 -1.6189634381543831e+02  9.7558453679953794e-01 -1.7107286685943410e+02
8.484848500000000e+01  5.6088499169789829e-01 -1.7645161627735567e+02  6.9190295654826834e-03 -1.6210213994594235e+02  6.9190295654826825e-03 -1.6210213994594235e+02  9.7612598502574477e-01 -1.7117185011127646e+02
8.585858600000000e+01  5.6092045202505492e-01 -1.7649250615593490e+02  6.7632118191452281e-03 -1.6230341104480948e+02  6.7632118191452272e-03 -1.6230341104480945e+02  9.7665000187760154e-01 -1.7126873926683973e+02
8.686868699999999e+01  5.6095478040483426e-01 -1.7653247177398191e+02  6.6125387688464763e-03 -1.6250030151270181e+02  6.6125387688464746e-03 -1.6250030151270181e+02  9.7715731118721572e-01 -1.7136359757908463e+02
8.787878800000000e+01  5.6098802354349797e-01 -1.7657154393351169e+02  6.4667888817484843e-03 -1.6269294980589930e+02  6.4667888817484835e-03 -1.6269294980589930e+02  9.7764860048346469e-01 -1.7145648588830184e+02
8.888888900000001e+01  5.6102022581214928e-01 -1.7660975208804805e+02  6.3257522963947000e-03 -1.6288148873207825e+02  6.3257522963947000e-03 -1.6288148873207825e+02  9.7812452309880993e-01 -1.7154746273005031e+02
8.989899000000000e+01  5.6105142938247843e-01 -1.7664712441551126e+02  6.1892300999825175e-03 -1.6306604572903223e+02  6.1892300999825184e-03 -1.6306604572903223e+02  9.7858570013903123e-01 -1.7163658443775344e+02
9.090909100000000e+01  5.6108167435359846e-01 -1.7668368788642474e+02  6.0570336568104826e-03 -1.6324674312744082e+02  6.0570336568104826e-03 -1.6324674312744082e+02  9.7903272232562222e-01 -1.7172390524022669e+02
9.191919200000000e+01  5.6111099887061255e-01 -1.7671946832778846e+02  5.9289839838383724e-03 -1.6342369839871469e+02  5.9289839838383715e-03 -1.6342369839871469e+02  9.7946615171985707e-01 -1.7180947735439790e+02
