! Created Mon Dec  4 15:47:47 2023
# hz S ma R 50
! 2 Port Network Data from SP1.SP block
! freq  magS11  angS11  magS21  angS21  magS12  angS12  magS22  angS22  
!     
1               0.2           -3.6e-08                0.4                  0                0.4     -2.3696979e-24                0.2               -180
1010102       0.200000024      -0.0363636693        0.400000008    -3.66182769e-10        0.400000008    -3.66182772e-10        0.200000064        -179.963636
2020203       0.200000097      -0.0727272865        0.400000032     -2.9294571e-09        0.400000032     -2.9294571e-09        0.200000258        -179.927273
3030304       0.200000218       -0.109090871        0.400000073    -9.88690881e-09        0.400000073    -9.88690881e-09         0.20000058        -179.890909
4040405       0.200000387       -0.145454408        0.400000129    -2.34356167e-08        0.400000129    -2.34356167e-08        0.200001031        -179.854546
5050506       0.200000604        -0.18181788        0.400000201    -4.57726488e-08        0.400000201    -4.57726488e-08        0.200001611        -179.818183
6060607        0.20000087       -0.218181272         0.40000029    -7.90950593e-08         0.40000029    -7.90950593e-08         0.20000232         -179.78182
7070708       0.200001184       -0.254544567        0.400000395    -1.25599884e-07        0.400000395    -1.25599884e-07        0.200003158        -179.745458
8080809       0.200001547       -0.290907749        0.400000516    -1.87484139e-07        0.400000516    -1.87484139e-07        0.200004125        -179.709096
9090910       0.200001958       -0.327270802        0.400000653    -2.66944813e-07        0.400000653    -2.66944813e-07         0.20000522        -179.672735
10101011       0.200002417       -0.363633711        0.400000806     -3.6617887e-07        0.400000806     -3.6617887e-07        0.200006445        -179.636374
11111112       0.200002924       -0.399996458        0.400000975    -4.87383238e-07        0.400000975    -4.87383238e-07        0.200007798        -179.600014
12121213        0.20000348       -0.436359028         0.40000116    -6.32754812e-07         0.40000116    -6.32754812e-07         0.20000928        -179.563655
13131314       0.200004084       -0.472721404        0.400001361    -8.04490449e-07        0.400001361    -8.04490449e-07        0.200010891        -179.527296
14141415       0.200004737       -0.509083572        0.400001579    -1.00478696e-06        0.400001579    -1.00478696e-06        0.200012631        -179.490939
15151516       0.200005438       -0.545445513        0.400001813    -1.23584112e-06        0.400001813    -1.23584112e-06          0.2000145        -179.454582
16161617       0.200006187       -0.581807213        0.400002062    -1.49984963e-06        0.400002062    -1.49984963e-06        0.200016498        -179.418226
17171718       0.200006984       -0.618168656        0.400002328    -1.79900918e-06        0.400002328    -1.79900918e-06        0.200018624        -179.381871
18181819        0.20000783       -0.654529824         0.40000261    -2.13551635e-06         0.40000261    -2.13551635e-06         0.20002088        -179.345517
19191920       0.200008724       -0.690890702        0.400002908     -2.5115677e-06        0.400002908     -2.5115677e-06        0.200023264        -179.309165
20202021       0.200009667       -0.727251275        0.400003222    -2.92935973e-06        0.400003222    -2.92935973e-06        0.200025777        -179.272813
21212122       0.200010658       -0.763611525        0.400003553    -3.39108883e-06        0.400003553    -3.39108883e-06        0.200028419        -179.236463
22222223       0.200011697       -0.799971437        0.400003899    -3.89895136e-06        0.400003899    -3.89895136e-06         0.20003119        -179.200114
23232324       0.200012784       -0.836330994        0.400004261    -4.45514359e-06        0.400004261    -4.45514359e-06        0.200034089        -179.163767
24242425        0.20001392       -0.872690181         0.40000464    -5.06186171e-06         0.40000464    -5.06186171e-06        0.200037118        -179.127421
25252526       0.200015104       -0.909048982        0.400005035    -5.72130184e-06        0.400005035    -5.72130184e-06        0.200040275        -179.091077
26262627       0.200016337       -0.945407379        0.400005446    -6.43566001e-06        0.400005446    -6.43566001e-06        0.200043561        -179.054734
27272728       0.200017617       -0.981765359        0.400005872    -7.20713214e-06        0.400005872    -7.20713214e-06        0.200046976        -179.018393
28282829       0.200018947         -1.0181229        0.400006316     -8.0379141e-06        0.400006316     -8.0379141e-06        0.200050519        -178.982054
29292930       0.200020324           -1.05448        0.400006775    -8.93020163e-06        0.400006775    -8.93020163e-06        0.200054191        -178.945716
30303031        0.20002175        -1.09083662         0.40000725    -9.88619038e-06         0.40000725    -9.88619038e-06        0.200057992        -178.909381
31313132       0.200023224        -1.12719277        0.400007741    -1.09080759e-05        0.400007741    -1.09080759e-05        0.200061922        -178.873047
32323233       0.200024746        -1.16354841        0.400008249    -1.19980537e-05        0.400008249    -1.19980537e-05        0.200065981        -178.836715
33333334       0.200026317        -1.19990354        0.400008772    -1.31583189e-05        0.400008772    -1.31583189e-05        0.200070168        -178.800386
34343435       0.200027936        -1.23625813        0.400009312     -1.4391067e-05        0.400009312     -1.4391067e-05        0.200074484        -178.764058
35353536       0.200029603        -1.27261218        0.400009868     -1.5698493e-05        0.400009868     -1.5698493e-05        0.200078929        -178.727733
36363637       0.200031318        -1.30896567        0.400010439    -1.70827918e-05        0.400010439    -1.70827918e-05        0.200083502         -178.69141
37373738       0.200033082        -1.34531858        0.400011027    -1.85461583e-05        0.400011027    -1.85461583e-05        0.200088204        -178.655089
38383839       0.200034895        -1.38167089        0.400011632    -2.00907873e-05        0.400011632    -2.00907873e-05        0.200093035        -178.618771
39393940       0.200036755        -1.41802259        0.400012252    -2.17188733e-05        0.400012252    -2.17188733e-05        0.200097995        -178.582455
40404041       0.200038664        -1.45437366        0.400012888    -2.34326109e-05        0.400012888    -2.34326109e-05        0.200103083        -178.546142
41414142       0.200040621        -1.49072408         0.40001354    -2.52341943e-05         0.40001354    -2.52341943e-05        0.200108299        -178.509831
42424243       0.200042626        -1.52707385        0.400014209    -2.71258177e-05        0.400014209    -2.71258177e-05        0.200113645        -178.473522
43434344        0.20004468        -1.56342294        0.400014893    -2.91096752e-05        0.400014893    -2.91096752e-05        0.200119119        -178.437217
44444445       0.200046782        -1.59977134        0.400015594    -3.11879608e-05        0.400015594    -3.11879608e-05        0.200124721        -178.400914
45454546       0.200048932        -1.63611903        0.400016311     -3.3362868e-05        0.400016311     -3.3362868e-05        0.200130453        -178.364614
46464647       0.200051131          -1.672466        0.400017044    -3.56365905e-05        0.400017044    -3.56365905e-05        0.200136312        -178.328317
47474748       0.200053378        -1.70881222        0.400017793    -3.80113218e-05        0.400017793    -3.80113218e-05        0.200142301        -178.292023
48484849       0.200055673        -1.74515769        0.400018558     -4.0489255e-05        0.400018558     -4.0489255e-05        0.200148418        -178.255732
49494950       0.200058016        -1.78150239        0.400019339    -4.30725834e-05        0.400019339    -4.30725834e-05        0.200154663        -178.219444
50505051       0.200060408         -1.8178463        0.400020136    -4.57634998e-05        0.400020136    -4.57634998e-05        0.200161037        -178.183159
51515152       0.200062848         -1.8541894        0.400020949     -4.8564197e-05        0.400020949     -4.8564197e-05        0.200167539        -178.146878
52525253       0.200065336        -1.89053169        0.400021779    -5.14768675e-05        0.400021779    -5.14768675e-05         0.20017417        -178.110599
53535354       0.200067873        -1.92687313        0.400022624    -5.45037038e-05        0.400022624    -5.45037038e-05         0.20018093        -178.074325
54545455       0.200070457        -1.96321373        0.400023486    -5.76468981e-05        0.400023486    -5.76468981e-05        0.200187817        -178.038053
55555556        0.20007309        -1.99955345        0.400024363    -6.09086424e-05        0.400024363    -6.09086424e-05        0.200194834        -178.001785
56565657       0.200075772        -2.03589229        0.400025257    -6.42911285e-05        0.400025257    -6.42911285e-05        0.200201978         -177.96552
57575758       0.200078501        -2.07223023        0.400026167    -6.77965481e-05        0.400026167    -6.77965481e-05        0.200209251        -177.929259
58585859       0.200081279        -2.10856725        0.400027093    -7.14270926e-05        0.400027093    -7.14270926e-05        0.200216653        -177.893002
59595960       0.200084105        -2.14490334        0.400028035    -7.51849533e-05        0.400028035    -7.51849533e-05        0.200224182        -177.856748
60606061        0.20008698        -2.18123849        0.400028993    -7.90723212e-05        0.400028993    -7.90723212e-05        0.200231841        -177.820498
61616162       0.200089902        -2.21757266        0.400029967    -8.30913872e-05        0.400029967    -8.30913872e-05        0.200239627        -177.784252
62626263       0.200092873        -2.25390586        0.400030958    -8.72443418e-05        0.400030958    -8.72443418e-05        0.200247542         -177.74801
63636364       0.200095892        -2.29023805        0.400031964    -9.15333754e-05        0.400031964    -9.15333754e-05        0.200255585        -177.711772
64646465       0.200098959        -2.32656924        0.400032986    -9.59606783e-05        0.400032986    -9.59606783e-05        0.200263756        -177.675538
65656566       0.200102075         -2.3628994        0.400034025     -0.00010052844        0.400034025     -0.00010052844        0.200272056        -177.639308
66666667       0.200105239        -2.39922851         0.40003508    -0.000105238852         0.40003508    -0.000105238852        0.200280483        -177.603082
67676768       0.200108451        -2.43555656         0.40003615    -0.000110094101         0.40003615    -0.000110094101        0.200289039        -177.566861
68686869       0.200111711        -2.47188353        0.400037237    -0.000115096378        0.400037237    -0.000115096378        0.200297723        -177.530644
69696970        0.20011502        -2.50820941         0.40003834    -0.000120247872         0.40003834    -0.000120247872        0.200306536        -177.494431
70707071       0.200118376        -2.54453418        0.400039459    -0.000125550772        0.400039459    -0.000125550772        0.200315476        -177.458222
71717172       0.200121781        -2.58085783        0.400040594    -0.000131007265        0.400040594    -0.000131007265        0.200324545        -177.422018
72727273       0.200125235        -2.61718033        0.400041745    -0.000136619541        0.400041745    -0.000136619541        0.200333741        -177.385819
73737374       0.200128736        -2.65350168        0.400042912    -0.000142389788        0.400042912    -0.000142389788        0.200343066        -177.349624
74747475       0.200132286        -2.68982185        0.400044095    -0.000148320193        0.400044095    -0.000148320193        0.200352519        -177.313434
75757576       0.200135883        -2.72614084        0.400045294    -0.000154412943        0.400045294    -0.000154412943          0.2003621        -177.277248
76767677       0.200139529        -2.76245862         0.40004651    -0.000160670227         0.40004651    -0.000160670227        0.200371809        -177.241067
77777778       0.200143224        -2.79877518        0.400047741    -0.000167094231        0.400047741    -0.000167094231        0.200381645        -177.204892
78787879       0.200146966        -2.83509051        0.400048989    -0.000173687141        0.400048989    -0.000173687141         0.20039161        -177.168721
79797980       0.200150757        -2.87140458        0.400050252    -0.000180451145        0.400050252    -0.000180451145        0.200401703        -177.132555
80808081       0.200154595        -2.90771738        0.400051532    -0.000187388428        0.400051532    -0.000187388428        0.200411923        -177.096394
81818182       0.200158482        -2.94402889        0.400052827    -0.000194501177        0.400052827    -0.000194501177        0.200422272        -177.060238
82828283       0.200162418        -2.98033911        0.400054139    -0.000201791577        0.400054139    -0.000201791577        0.200432748        -177.024088
83838384       0.200166401        -3.01664801        0.400055467    -0.000209261814        0.400055467    -0.000209261814        0.200443352        -176.987942
84848485       0.200170433        -3.05295558        0.400056811    -0.000216914072        0.400056811    -0.000216914072        0.200454084        -176.951802
85858586       0.200174512         -3.0892618        0.400058171    -0.000224750536        0.400058171    -0.000224750536        0.200464944        -176.915667
86868687        0.20017864        -3.12556665        0.400059547    -0.000232773391        0.400059547    -0.000232773391        0.200475931        -176.879538
87878788       0.200182816        -3.16187012        0.400060939    -0.000240984821        0.400060939    -0.000240984821        0.200487047        -176.843414
88888889        0.20018704         -3.1981722        0.400062347     -0.00024938701        0.400062347     -0.00024938701        0.200498289        -176.807296
89898990       0.200191313        -3.23447287        0.400063771    -0.000257982141        0.400063771    -0.000257982141         0.20050966        -176.771183
90909091       0.200195633         -3.2707721        0.400065211    -0.000266772397        0.400065211    -0.000266772397        0.200521158        -176.735077
91919192       0.200200002         -3.3070699        0.400066667    -0.000275759963        0.400066667    -0.000275759963        0.200532784        -176.698975
92929293       0.200204419        -3.34336623        0.400068139    -0.000284947019        0.400068139    -0.000284947019        0.200544537         -176.66288
93939394       0.200208883        -3.37966109        0.400069628    -0.000294335749        0.400069628    -0.000294335749        0.200556418         -176.62679
94949495       0.200213397        -3.41595445        0.400071132    -0.000303928335        0.400071132    -0.000303928335        0.200568427        -176.590707
95959596       0.200217958        -3.45224631        0.400072653    -0.000313726958        0.400072653    -0.000313726958        0.200580563        -176.554629
96969697       0.200222567        -3.48853664        0.400074189    -0.000323733799        0.400074189    -0.000323733799        0.200592826        -176.518557
97979798       0.200227225        -3.52482544        0.400075741     -0.00033395104        0.400075741     -0.00033395104        0.200605217        -176.482492
98989899        0.20023193        -3.56111268         0.40007731     -0.00034438086         0.40007731     -0.00034438086        0.200617735        -176.446433
100000000       0.200236684        -3.59739834        0.400078895    -0.000355025442        0.400078895    -0.000355025442        0.200630381        -176.410379
