# MHz S RI R 50

1.000000000000000e-06  1.9999999999999996e-01 -1.2566370614359169e-10  4.0000000000000041e-01 -5.5421101041053007e-27  4.0000000000000008e-01 -1.5881867761018133e-26 -1.9999999999999998e-01 -2.4492935988279962e-17
1.010102000000000e+00  1.9999998371993424e-01 -1.2693315818879488e-04  4.0000000799999991e-01 -2.5564380439196660e-12  4.0000000800000002e-01 -2.5564380691294023e-12 -2.0000002371919354e-01 -1.2693433793634117e-04
2.020203000000000e+00  1.9999993587992490e-01 -2.5386617604676218e-04  4.0000003199999989e-01 -2.0451470433562130e-11  4.0000003200000001e-01 -2.0451470325441184e-11 -2.0000009688106457e-01 -2.5386538033477771e-04
3.030304000000000e+00  1.9999985548006316e-01 -3.8079916155583482e-04  4.0000007300000018e-01 -6.9023657364738269e-11  4.0000007300000001e-01 -6.9023657248038180e-11 -2.0000021747854951e-01 -3.8080030109706919e-04
4.040405000000000e+00  1.9999974252048691e-01 -5.0773210331739804e-04  4.0000012900000020e-01 -1.6361152210877862e-10  4.0000012900000004e-01 -1.6361152218859584e-10 -2.0000038652202717e-01 -5.0773231402022714e-04
5.050506000000000e+00  1.9999959700141245e-01 -6.3466498050803225e-04  4.0000020100000011e-01 -3.1955353201182433e-10  4.0000020100000000e-01 -3.1955353211005808e-10 -2.0000060400608979e-01 -6.3466510424781532e-04
6.060607000000000e+00  1.9999941992308637e-01 -7.6159778483888207e-04  4.0000028999999987e-01 -5.5218808321792569e-10  4.0000028999999998e-01 -5.5218808308176008e-10 -2.0000086992948138e-01 -7.6159886626186589e-04
7.070708000000000e+00  1.9999921028584527e-01 -8.8853049469309520e-04  4.0000039500000023e-01 -8.7685347207131813e-10  4.0000039500000006e-01 -8.7685347224419133e-10 -2.0000118430617372e-01 -8.8853030386367576e-04
8.080809000000000e+00  1.9999896909005965e-01 -1.0154630995603379e-03  4.0000051599999992e-01 -1.3088878974971975e-09  4.0000051600000003e-01 -1.3088878968480758e-09 -2.0000154712327514e-01 -1.0154631021985776e-03
9.090909999999999e+00  1.9999869533617576e-01 -1.1423955800449360e-03  4.0000065300000009e-01 -1.8636294054561701e-09  4.0000065299999993e-01 -1.8636294055542381e-09 -2.0000195739864673e-01 -1.1423939593356285e-03
1.010101100000000e+01  1.9999838902466976e-01 -1.2693279240497254e-03  4.0000080599999976e-01 -2.5564159240453600e-09  4.0000080599999999e-01 -2.5564159242701811e-09 -2.0000241711437797e-01 -1.2693265712122386e-03
1.111111200000000e+01  1.9999805015613956e-01 -1.3962601090055421e-03  4.0000097499999993e-01 -3.4025851827356045e-09  4.0000097500000004e-01 -3.4025851827320654e-09 -2.0000292429222313e-01 -1.3962576295265714e-03
1.212121300000000e+01  1.9999767973115137e-01 -1.5231921304308361e-03  4.0000115999999997e-01 -4.4174747411922800e-09  4.0000115999999997e-01 -4.4174747415173545e-09 -2.0000347993588177e-01 -1.5231873344245027e-03
1.313131400000000e+01  1.9999727675042497e-01 -1.6501239629002770e-03  4.0000136100000006e-01 -5.6164219644870387e-09  4.0000136099999994e-01 -5.6164219641674426e-09 -2.0000408401998954e-01 -1.6501193710615014e-03
1.414141500000000e+01  1.9999684221459563e-01 -1.7770556066918645e-03  4.0000157899999977e-01 -7.0147639837761008e-09  4.0000157899999994e-01 -7.0147639839709556e-09 -2.0000473660308918e-01 -1.7770469524058087e-03
1.515151600000000e+01  1.9999637512457202e-01 -1.9039870281294927e-03  4.0000181299999960e-01 -8.6278377353854076e-09  4.0000181299999987e-01 -8.6278377357657668e-09 -2.0000543762824294e-01 -1.9039772543379000e-03
1.616161700000000e+01  1.9999587548114156e-01 -2.0309182186057520e-03  4.0000206199999999e-01 -1.0470979708173726e-08  4.0000206199999983e-01 -1.0470979708797577e-08 -2.0000618712684970e-01 -2.0309069805284712e-03
1.717171800000000e+01  1.9999534328520743e-01 -2.1578491625318412e-03  4.0000232799999969e-01 -1.2559526480997158e-08  4.0000232799999980e-01 -1.2559526481778893e-08 -2.0000698410128789e-01 -2.1578363145808434e-03
1.818181900000000e+01  1.9999477953774594e-01 -2.2847798487610834e-03  4.0000260999999959e-01 -1.4908813895604918e-08  4.0000260999999970e-01 -1.4908813894512729e-08 -2.0000783055348906e-01 -2.2847654718175028e-03
1.919192000000000e+01  1.9999418323979806e-01 -2.4117102550406046e-03  4.0000290799999949e-01 -1.7534177774414692e-08  4.0000290799999966e-01 -1.7534177773380610e-08 -2.0000872452743126e-01 -2.4116911335877794e-03
2.020202100000000e+01  1.9999355539232247e-01 -2.5386403819641478e-03  4.0000322199999938e-01 -2.0450953637444191e-08  4.0000322199999938e-01 -2.0450953636676375e-08 -2.0000966694257186e-01 -2.5386204866452104e-03
2.121212200000000e+01  1.9999289499661133e-01 -2.6655701955375180e-03  4.0000355299999929e-01 -2.3674476410617287e-08  4.0000355299999929e-01 -2.3674476410987490e-08 -2.0001065788651556e-01 -2.6655467436993668e-03
2.222222300000000e+01  1.9999220205382148e-01 -2.7924996836613978e-03  4.0000389899999911e-01 -2.7220080768847486e-08  4.0000389899999894e-01 -2.7220080767976812e-08 -2.0001169731809645e-01 -2.7924735898960051e-03
2.323232400000000e+01  1.9999147656526081e-01 -2.9194288272551636e-03  4.0000426099999864e-01 -3.1103101039894259e-08  4.0000426099999881e-01 -3.1103101039968315e-08 -2.0001278428902219e-01 -2.9193977140832559e-03
2.424242500000000e+01  1.9999071953208200e-01 -3.0463576294497080e-03  4.0000463999999858e-01 -3.5338871175146778e-08  4.0000463999999841e-01 -3.5338871174217980e-08 -2.0001392075293548e-01 -3.0463228299696375e-03
2.525252600000000e+01  1.9998992995575501e-01 -3.1732860606926805e-03  4.0000503499999795e-01 -3.9942724616328582e-08  4.0000503499999795e-01 -3.9942724615992138e-08 -2.0001510476553322e-01 -3.1732456111070325e-03
2.626262700000000e+01  1.9998910883768969e-01 -3.3002141149119160e-03  4.0000544599999749e-01 -4.4929994398714433e-08  4.0000544599999749e-01 -4.4929994398996998e-08 -2.0001633727556864e-01 -3.3001697572540168e-03
2.727272800000000e+01  1.9998825417947022e-01 -3.4271417546226585e-03  4.0000587199999726e-01 -5.0316012816365645e-08  4.0000587199999682e-01 -5.0316012816146462e-08 -2.0001761834239010e-01 -3.4270919717139200e-03
2.828282900000000e+01  1.9998736898256797e-01 -3.5540689946932501e-03  4.0000631599999598e-01 -5.6116112475453140e-08  4.0000631599999603e-01 -5.6116112474399172e-08 -2.0001894697205633e-01 -3.5540124309081681e-03
2.929293000000000e+01  1.9998645024816128e-01 -3.6809958169953480e-03  4.0000677499999504e-01 -6.2345624486320665e-08  4.0000677499999510e-01 -6.2345624485293889e-08 -2.0002032410581128e-01 -3.6809348365157047e-03
3.030303100000000e+01  1.9998549997905335e-01 -3.8079221618287067e-03  4.0000724999999404e-01 -6.9019880007538071e-08  4.0000724999999404e-01 -6.9019880006615559e-08 -2.0002174987527399e-01 -3.8078524006844123e-03
3.131313200000000e+01  1.9998451717542945e-01 -3.9348480865828732e-03  4.0000774099999281e-01 -7.6154209547624415e-08  4.0000774099999281e-01 -7.6154209550561938e-08 -2.0002322415480764e-01 -3.9347722995980838e-03
3.232323300000000e+01  1.9998350184068939e-01 -4.0617734918953780e-03  4.0000824899999093e-01 -8.3763943741451098e-08  4.0000824899999116e-01 -8.3763943744458620e-08 -2.0002474701344555e-01 -4.0616912363570755e-03
3.333333400000000e+01  1.9998245497536024e-01 -4.1886984389599355e-03  4.0000877199998974e-01 -9.1864410077012076e-08  4.0000877199998941e-01 -9.1864410075459518e-08 -2.0002631752902236e-01 -4.1886058930018944e-03
3.434343500000000e+01  1.9998137558255641e-01 -4.3156228436459750e-03  4.0000931199998740e-01 -1.0047093972181309e-07  4.0000931199998740e-01 -1.0047093971935024e-07 -2.0002793656158416e-01 -4.3155234654816401e-03
3.535353600000000e+01  1.9998026366305596e-01 -4.4425467462049966e-03  4.0000986799998517e-01 -1.0959885991644819e-07  4.0000986799998500e-01 -1.0959885991749488e-07 -2.0002960426351107e-01 -4.4424371655846723e-03
3.636363700000000e+01  1.9997911921914788e-01 -4.5694701170809664e-03  4.0001043899998207e-01 -1.1926349733362386e-07  4.0001043899998223e-01 -1.1926349733442293e-07 -2.0003131956563694e-01 -4.5693506556219897e-03
3.737373800000000e+01  1.9997794325293988e-01 -4.6963929501958471e-03  4.0001102699997915e-01 -1.2948017971783920e-07  4.0001102699997898e-01 -1.2948017971874600e-07 -2.0003308347112994e-01 -4.6962641511728289e-03
3.838383900000000e+01  1.9997673576686317e-01 -4.8233152178962912e-03  4.0001163199997530e-01 -1.4026423384674751e-07  4.0001163199997541e-01 -1.4026423384640986e-07 -2.0003489606729347e-01 -4.8231743549582845e-03
3.939394000000000e+01  1.9997549476318921e-01 -4.9502368779377843e-03  4.0001225199997142e-01 -1.5163098387783200e-07  4.0001225199997126e-01 -1.5163098387791305e-07 -2.0003675727722281e-01 -4.9500849521477933e-03
4.040404100000000e+01  1.9997422224391692e-01 -5.0771579496222130e-03  4.0001288799996665e-01 -1.6359575590351336e-07  4.0001288799996665e-01 -1.6359575590280786e-07 -2.0003866619241781e-01 -5.0769926199787738e-03
4.141414200000000e+01  1.9997291721202642e-01 -5.2040783792799711e-03  4.0001353999996137e-01 -1.7617387313483072e-07  4.0001353999996125e-01 -1.7617387313319663e-07 -2.0004062273103737e-01 -5.2039010417357992e-03
4.242424300000000e+01  1.9997157966843979e-01 -5.3309982071569973e-03  4.0001420899995532e-01 -1.8938065949835697e-07  4.0001420899995521e-01 -1.8938065949968030e-07 -2.0004262889443558e-01 -5.3308104626915865e-03
4.343434400000000e+01  1.9997021061648165e-01 -5.4579173960765835e-03  4.0001489299994852e-01 -2.0323143710452683e-07  4.0001489299994841e-01 -2.0323143710328725e-07 -2.0004468287555330e-01 -5.4577140411979780e-03
4.444444500000000e+01  1.9996880905841860e-01 -5.5848359253664872e-03  4.0001559399994074e-01 -2.1774152949954907e-07  4.0001559399994074e-01 -2.1774152949972173e-07 -2.0004678449425159e-01 -5.5846189519343893e-03
4.545454600000000e+01  1.9996737499718117e-01 -5.7117537654676033e-03  4.0001631099993196e-01 -2.3292625556661454e-07  4.0001631099993218e-01 -2.3292625556649839e-07 -2.0004893585063793e-01 -5.7115219523874170e-03
4.646464700000000e+01  1.9996590943434886e-01 -5.8386709509072572e-03  4.0001704399992238e-01 -2.4880093631875751e-07  4.0001704399992272e-01 -2.4880093631997581e-07 -2.0005113395348600e-01 -5.8384231506226018e-03
4.747474800000000e+01  1.9996441137440282e-01 -5.9655873893072640e-03  4.0001779299991236e-01 -2.6538089165618442e-07  4.0001779299991203e-01 -2.6538089165831180e-07 -2.0005338180884943e-01 -5.9653228259104359e-03
4.848484900000000e+01  1.9996288081842747e-01 -6.0925031209083666e-03  4.0001855799989999e-01 -2.8268143896829907e-07  4.0001855799990022e-01 -2.8268143896881195e-07 -2.0005567742459671e-01 -6.0922211128974207e-03
4.949495000000000e+01  1.9996131776959461e-01 -6.2194181161493904e-03  4.0001933899988679e-01 -3.0071789732396136e-07  4.0001933899988695e-01 -3.0071789732366665e-07 -2.0005802080750784e-01 -6.2191182032785355e-03
5.050505100000000e+01  1.9995972323066630e-01 -6.3463323771911053e-03  4.0002013599987229e-01 -3.1950558259533864e-07  4.0002013599987241e-01 -3.1950558259928888e-07 -2.0006041296358543e-01 -6.3460143204242007e-03
5.151515200000000e+01  1.9995809620546515e-01 -6.4732458440179821e-03  4.0002094899985641e-01 -3.3905981097569542e-07  4.0002094899985630e-01 -3.3905981097495209e-07 -2.0006285301249666e-01 -6.4729061337754339e-03
5.252525300000000e+01  1.9995643669513891e-01 -6.6001585568663769e-03  4.0002177899983876e-01 -3.5939589773932810e-07  4.0002177899983865e-01 -3.5939589773794505e-07 -2.0006534173592150e-01 -6.5998008513752813e-03
5.353535400000000e+01  1.9995474570488414e-01 -6.7270704499993840e-03  4.0002262399981886e-01 -3.8052915585234060e-07  4.0002262399981897e-01 -3.8052915584876369e-07 -2.0006787948504368e-01 -6.7266881912976632e-03
5.454545500000000e+01  1.9995302123586106e-01 -6.8539815319363677e-03  4.0002348599979742e-01 -4.0247490008630579e-07  4.0002348599979753e-01 -4.0247490008898707e-07 -2.0007046392081326e-01 -6.8535787539067642e-03
5.555555600000000e+01  1.9995126529288806e-01 -6.9808917711982488e-03  4.0002436299977401e-01 -4.2524844036334493e-07  4.0002436299977401e-01 -4.2524844036185679e-07 -2.0007309828362452e-01 -6.9804658496864427e-03
5.656565700000000e+01  1.9994947787717854e-01 -7.1078012099191476e-03  4.0002525699974834e-01 -4.4886508953146018e-07  4.0002525699974822e-01 -4.4886508953351905e-07 -2.0007577946269181e-01 -7.1073530592484866e-03
5.757575800000000e+01  1.9994765699369293e-01 -7.2347097481167697e-03  4.0002616699971988e-01 -4.7334015704255442e-07  4.0002616699971999e-01 -4.7334015703717677e-07 -2.0007850958762197e-01 -7.2342371523771995e-03
5.858585900000000e+01  1.9994580464496109e-01 -7.3616174279108135e-03  4.0002709299968947e-01 -4.9868895155686607e-07  4.0002709299968919e-01 -4.9868895156011836e-07 -2.0008128866930178e-01 -7.3611183222363936e-03
5.959596000000000e+01  1.9994391983421470e-01 -7.4885242191071585e-03  4.0002803499965556e-01 -5.2492678144292793e-07  4.0002803499965567e-01 -5.2492678144452871e-07 -2.0008411458905018e-01 -7.4880001792822113e-03
6.060606100000000e+01  1.9994200356333552e-01 -7.6154301650963787e-03  4.0002899299961875e-01 -5.5206895328753593e-07  4.0002899299961908e-01 -5.5206895329066995e-07 -2.0008699048143688e-01 -7.6148795348740111e-03
6.161616200000000e+01  1.9994005384041444e-01 -7.7423350910310659e-03  4.0002996699957921e-01 -5.8013077336545585e-07  4.0002996699957938e-01 -5.8013077336708681e-07 -2.0008991335869417e-01 -7.7417564679727654e-03
6.262626300000000e+01  1.9993807266404595e-01 -7.8692391487876299e-03  4.0003095799953609e-01 -6.0912754703603183e-07  4.0003095799953625e-01 -6.0912754703589556e-07 -2.0009288522921082e-01 -7.8686312463885407e-03
6.363636400000000e+01  1.9993605904182951e-01 -7.9961422009455357e-03  4.0003196399948932e-01 -6.3907457484619601e-07  4.0003196399948948e-01 -6.3907457484639581e-07 -2.0009590510329717e-01 -7.9955040231694877e-03
6.464646500000001e+01  1.9993401297382185e-01 -8.1230443226228809e-03  4.0003298599943909e-01 -6.6998716144742213e-07  4.0003298599943898e-01 -6.6998716144728671e-07 -2.0009897299026760e-01 -8.1223749893551897e-03
6.565656600000000e+01  1.9993193546481763e-01 -8.2499454905831677e-03  4.0003402499938434e-01 -7.0188060660039777e-07  4.0003402499938434e-01 -7.0188060659795270e-07 -2.0010208989831513e-01 -8.2492443771360630e-03
6.666666700000000e+01  1.9992982551997970e-01 -8.3768456352951888e-03  4.0003507999932536e-01 -7.3477022106366026e-07  4.0003507999932519e-01 -7.3477022106447415e-07 -2.0010525383788086e-01 -8.3761122957246390e-03
6.767676800000000e+01  1.9992768314228213e-01 -8.5037447620831142e-03  4.0003614999926157e-01 -7.6867128217999710e-07  4.0003614999926146e-01 -7.6867128217858541e-07 -2.0010846696414228e-01 -8.5029755265022006e-03
6.868686900000000e+01  1.9992550833621042e-01 -8.6306428413758692e-03  4.0003723699919275e-01 -8.0359910337313913e-07  4.0003723699919286e-01 -8.0359910337281493e-07 -2.0011172814219624e-01 -8.6298377115972564e-03
6.969696999999999e+01  1.9992330210385789e-01 -8.7575399222579731e-03  4.0003833999911892e-01 -8.3956897894465137e-07  4.0003833999911897e-01 -8.3956897894067000e-07 -2.0011503837903882e-01 -8.7566990855642152e-03
7.070707100000000e+01  1.9992106245172050e-01 -8.8844358882651988e-03  4.0003945899903937e-01 -8.7659620542234238e-07  4.0003945899903953e-01 -8.7659620542199997e-07 -2.0011839568423526e-01 -8.8835597523986131e-03
7.171717200000001e+01  1.9991879138098154e-01 -9.0113308328756310e-03  4.0004059399895420e-01 -9.1469606582029045e-07  4.0004059399895425e-01 -9.1469606582263779e-07 -2.0012180222051557e-01 -9.0104164981365219e-03
7.272727300000000e+01  1.9991648889787927e-01 -9.1382246935231004e-03  4.0004174499886314e-01 -9.5388386452224939e-07  4.0004174499886275e-01 -9.5388386452079122e-07 -2.0012525600365524e-01 -9.1372694239853381e-03
7.373737400000000e+01  1.9991415300612514e-01 -9.2651174197258858e-03  4.0004291199876479e-01 -9.9417489236705424e-07  4.0004291199876463e-01 -9.9417489236730813e-07 -2.0012875888342044e-01 -9.2641223039271626e-03
7.474747499999999e+01  1.9991178571009169e-01 -9.3920090389753193e-03  4.0004409499865962e-01 -1.0355844336734660e-06  4.0004409499865962e-01 -1.0355844336715790e-06 -2.0013231003132073e-01 -9.3909717906415953e-03
7.575757600000000e+01  1.9990938501364003e-01 -9.5188994982534688e-03  4.0004529399854688e-01 -1.0781277731940124e-06  4.0004529399854721e-01 -1.0781277731926423e-06 -2.0013590929420472e-01 -9.5178215675548496e-03
7.676767700000001e+01  1.9990695292119171e-01 -9.6457888275837643e-03  4.0004650999842706e-01 -1.1218202129137987e-06  4.0004650999842711e-01 -1.1218202129101355e-06 -2.0013955684645657e-01 -9.6446683321118141e-03
7.777777800000000e+01  1.9990448943608002e-01 -9.7726770341791634e-03  4.0004774099829876e-01 -1.1666770260170769e-06  4.0004774099829887e-01 -1.1666770260155764e-06 -2.0014325187223517e-01 -9.7715087326919973e-03
7.878787900000000e+01  1.9990199256409077e-01 -9.8995640263275612e-03  4.0004898899816194e-01 -1.2127134973920740e-06  4.0004898899816194e-01 -1.2127134973940831e-06 -2.0014699604246947e-01 -9.8983500427008257e-03
7.979798000000000e+01  1.9989946430974290e-01 -1.0026449837850419e-02  4.0005025199801575e-01 -1.2599449146875916e-06  4.0005025199801592e-01 -1.2599449146909642e-06 -2.0015078853853330e-01 -1.0025188911116555e-02
8.080808100000000e+01  1.9989690267909010e-01 -1.0153334374502153e-02  4.0005153199786048e-01 -1.3083865572179851e-06  4.0005153199786048e-01 -1.3083865572192349e-06 -2.0015462837332385e-01 -1.0152025477440938e-02
8.181818199999999e+01  1.9989430967496347e-01 -1.0280217707524955e-02  4.0005282699769495e-01 -1.3580537061300290e-06  4.0005282699769484e-01 -1.3580537061328084e-06 -2.0015851755564890e-01 -1.0278860032464164e-02
8.282828300000000e+01  1.9989168529910137e-01 -1.0407099879013011e-02  4.0005413899751879e-01 -1.4089616422029349e-06  4.0005413899751879e-01 -1.4089616422022291e-06 -2.0016245428079657e-01 -1.0405689170809930e-02
8.383838400000000e+01  1.9988902756144314e-01 -1.0533980721142474e-02  4.0005546699733191e-01 -1.4611256437417722e-06  4.0005546699733174e-01 -1.4611256437437032e-06 -2.0016643919727500e-01 -1.0532520120062410e-02
8.484848500000000e+01  1.9988633846297935e-01 -1.0660860343837682e-02  4.0005681099713286e-01 -1.5145609788813680e-06  4.0005681099713297e-01 -1.5145609788817611e-06 -2.0017047268106081e-01 -1.0659346083122889e-02
8.585858600000000e+01  1.9988361601213153e-01 -1.0787738611630238e-02  4.0005817099692209e-01 -1.5692829232339149e-06  4.0005817099692209e-01 -1.5692829232328783e-06 -2.0017455456080699e-01 -1.0786170743392455e-02
8.686868699999999e+01  1.9988086221173917e-01 -1.0914615602087122e-02  4.0005954699669866e-01 -1.6253067529289278e-06  4.0005954699669849e-01 -1.6253067529276265e-06 -2.0017868403846226e-01 -1.0912990742515814e-02
8.787878800000000e+01  1.9987807606709915e-01 -1.1041491267250911e-02  4.0006093899646128e-01 -1.6826477376258538e-06  4.0006093899646145e-01 -1.6826477376346763e-06 -2.0018286293478402e-01 -1.1039809872171607e-02
8.888888900000001e+01  1.9987525758209518e-01 -1.1168365612420942e-02  4.0006234699621018e-01 -1.7413211475440307e-06  4.0006234699621029e-01 -1.7413211475513764e-06 -2.0018708845867997e-01 -1.1166624662994199e-02
8.989899000000000e+01  1.9987240776099510e-01 -1.1295238664432293e-02  4.0006377099594470e-01 -1.8013422464243618e-06  4.0006377099594459e-01 -1.8013422464251652e-06 -2.0019136342432420e-01 -1.1293438963654680e-02
9.090909100000000e+01  1.9986952461489754e-01 -1.1422110246601851e-02  4.0006521099566356e-01 -1.8627262985430041e-06  4.0006521099566345e-01 -1.8627262985406775e-06 -2.0019568624242406e-01 -1.1420245863634965e-02
9.191919200000000e+01  1.9986661014064902e-01 -1.1548980547470370e-02  4.0006666699536653e-01 -1.9254885826922816e-06  4.0006666699536636e-01 -1.9254885826941260e-06 -2.0020005732876309e-01 -1.1547056090217831e-02
