! Created Mon Dec  4 15:49:37 2023
# hz S db R 50
! 2 Port Network Data from SP1.SP block
! freq  dbS11  angS11  dbS21  angS21  dbS12  angS12  dbS22  angS22  
!     
1       -13.9794001           -3.6e-08        -7.95880017                  0        -7.95880017     -2.3696979e-24        -13.9794001               -180
1010102        -13.979399      -0.0363636693            -7.9588    -3.66182769e-10            -7.9588    -3.66182772e-10        -13.9793973        -179.963636
2020203       -13.9793959      -0.0727272865        -7.95879947     -2.9294571e-09        -7.95879947     -2.9294571e-09        -13.9793889        -179.927273
3030304       -13.9793906       -0.109090871         -7.9587986    -9.88690881e-09         -7.9587986    -9.88690881e-09        -13.9793749        -179.890909
4040405       -13.9793833       -0.145454408        -7.95879737    -2.34356167e-08        -7.95879737    -2.34356167e-08        -13.9793553        -179.854546
5050506       -13.9793738        -0.18181788         -7.9587958    -4.57726488e-08         -7.9587958    -4.57726488e-08        -13.9793301        -179.818183
6060607       -13.9793623       -0.218181272        -7.95879388    -7.90950593e-08        -7.95879388    -7.90950593e-08        -13.9792993         -179.78182
7070708       -13.9793487       -0.254544567         -7.9587916    -1.25599884e-07         -7.9587916    -1.25599884e-07        -13.9792629        -179.745458
8080809       -13.9793329       -0.290907749        -7.95878898    -1.87484139e-07        -7.95878898    -1.87484139e-07         -13.979221        -179.709096
9090910       -13.9793151       -0.327270802          -7.958786    -2.66944813e-07          -7.958786    -2.66944813e-07        -13.9791734        -179.672735
10101011       -13.9792951       -0.363633711        -7.95878268     -3.6617887e-07        -7.95878268     -3.6617887e-07        -13.9791202        -179.636374
11111112       -13.9792731       -0.399996458        -7.95877901    -4.87383238e-07        -7.95877901    -4.87383238e-07        -13.9790614        -179.600014
12121213       -13.9792489       -0.436359028        -7.95877498    -6.32754812e-07        -7.95877498    -6.32754812e-07        -13.9789971        -179.563655
13131314       -13.9792227       -0.472721404        -7.95877061    -8.04490449e-07        -7.95877061    -8.04490449e-07        -13.9789271        -179.527296
14141415       -13.9791944       -0.509083572        -7.95876589    -1.00478696e-06        -7.95876589    -1.00478696e-06        -13.9788515        -179.490939
15151516       -13.9791639       -0.545445513        -7.95876081    -1.23584112e-06        -7.95876081    -1.23584112e-06        -13.9787704        -179.454582
16161617       -13.9791314       -0.581807213        -7.95875539    -1.49984963e-06        -7.95875539    -1.49984963e-06        -13.9786836        -179.418226
17171718       -13.9790968       -0.618168656        -7.95874962    -1.79900918e-06        -7.95874962    -1.79900918e-06        -13.9785913        -179.381871
18181819         -13.97906       -0.654529824         -7.9587435    -2.13551635e-06         -7.9587435    -2.13551635e-06        -13.9784933        -179.345517
19191920       -13.9790212       -0.690890702        -7.95873702     -2.5115677e-06        -7.95873702     -2.5115677e-06        -13.9783898        -179.309165
20202021       -13.9789803       -0.727251275         -7.9587302    -2.92935973e-06         -7.9587302    -2.92935973e-06        -13.9782807        -179.272813
21212122       -13.9789372       -0.763611525        -7.95872303    -3.39108883e-06        -7.95872303    -3.39108883e-06         -13.978166        -179.236463
22222223       -13.9788921       -0.799971437        -7.95871551    -3.89895136e-06        -7.95871551    -3.89895136e-06        -13.9780456        -179.200114
23232324       -13.9788449       -0.836330994        -7.95870764    -4.45514359e-06        -7.95870764    -4.45514359e-06        -13.9779197        -179.163767
24242425       -13.9787956       -0.872690181        -7.95869942    -5.06186171e-06        -7.95869942    -5.06186171e-06        -13.9777882        -179.127421
25252526       -13.9787441       -0.909048982        -7.95869085    -5.72130184e-06        -7.95869085    -5.72130184e-06        -13.9776512        -179.091077
26262627       -13.9786906       -0.945407379        -7.95868193    -6.43566001e-06        -7.95868193    -6.43566001e-06        -13.9775085        -179.054734
27272728        -13.978635       -0.981765359        -7.95867266    -7.20713214e-06        -7.95867266    -7.20713214e-06        -13.9773602        -179.018393
28282829       -13.9785773         -1.0181229        -7.95866304     -8.0379141e-06        -7.95866304     -8.0379141e-06        -13.9772063        -178.982054
29292930       -13.9785175           -1.05448        -7.95865307    -8.93020163e-06        -7.95865307    -8.93020163e-06        -13.9770469        -178.945716
30303031       -13.9784556        -1.09083662        -7.95864275    -9.88619038e-06        -7.95864275    -9.88619038e-06        -13.9768819        -178.909381
31313132       -13.9783916        -1.12719277        -7.95863208    -1.09080759e-05        -7.95863208    -1.09080759e-05        -13.9767113        -178.873047
32323233       -13.9783254        -1.16354841        -7.95862106    -1.19980537e-05        -7.95862106    -1.19980537e-05         -13.976535        -178.836715
33333334       -13.9782572        -1.19990354        -7.95860969    -1.31583189e-05        -7.95860969    -1.31583189e-05        -13.9763533        -178.800386
34343435       -13.9781869        -1.23625813        -7.95859797     -1.4391067e-05        -7.95859797     -1.4391067e-05        -13.9761659        -178.764058
35353536       -13.9781145        -1.27261218         -7.9585859     -1.5698493e-05         -7.9585859     -1.5698493e-05        -13.9759729        -178.727733
36363637       -13.9780401        -1.30896567        -7.95857349    -1.70827918e-05        -7.95857349    -1.70827918e-05        -13.9757744         -178.69141
37373738       -13.9779635        -1.34531858        -7.95856072    -1.85461583e-05        -7.95856072    -1.85461583e-05        -13.9755703        -178.655089
38383839       -13.9778848        -1.38167089         -7.9585476    -2.00907873e-05         -7.9585476    -2.00907873e-05        -13.9753606        -178.618771
39393940        -13.977804        -1.41802259        -7.95853414    -2.17188733e-05        -7.95853414    -2.17188733e-05        -13.9751453        -178.582455
40404041       -13.9777211        -1.45437366        -7.95852032    -2.34326109e-05        -7.95852032    -2.34326109e-05        -13.9749244        -178.546142
41414142       -13.9776361        -1.49072408        -7.95850615    -2.52341943e-05        -7.95850615    -2.52341943e-05         -13.974698        -178.509831
42424243        -13.977549        -1.52707385        -7.95849164    -2.71258177e-05        -7.95849164    -2.71258177e-05         -13.974466        -178.473522
43434344       -13.9774599        -1.56342294        -7.95847678    -2.91096752e-05        -7.95847678    -2.91096752e-05        -13.9742284        -178.437217
44444445       -13.9773686        -1.59977134        -7.95846156    -3.11879608e-05        -7.95846156    -3.11879608e-05        -13.9739852        -178.400914
45454546       -13.9772752        -1.63611903          -7.958446     -3.3362868e-05          -7.958446     -3.3362868e-05        -13.9737364        -178.364614
46464647       -13.9771798          -1.672466        -7.95843008    -3.56365905e-05        -7.95843008    -3.56365905e-05        -13.9734821        -178.328317
47474748       -13.9770822        -1.70881222        -7.95841382    -3.80113218e-05        -7.95841382    -3.80113218e-05        -13.9732222        -178.292023
48484849       -13.9769826        -1.74515769        -7.95839721     -4.0489255e-05        -7.95839721     -4.0489255e-05        -13.9729568        -178.255732
49494950       -13.9768808        -1.78150239        -7.95838025    -4.30725834e-05        -7.95838025    -4.30725834e-05        -13.9726858        -178.219444
50505051        -13.976777         -1.8178463        -7.95836294    -4.57634998e-05        -7.95836294    -4.57634998e-05        -13.9724092        -178.183159
51515152       -13.9766711         -1.8541894        -7.95834528     -4.8564197e-05        -7.95834528     -4.8564197e-05         -13.972127        -178.146878
52525253        -13.976563        -1.89053169        -7.95832727    -5.14768675e-05        -7.95832727    -5.14768675e-05        -13.9718393        -178.110599
53535354       -13.9764529        -1.92687313        -7.95830891    -5.45037038e-05        -7.95830891    -5.45037038e-05         -13.971546        -178.074325
54545455       -13.9763407        -1.96321373         -7.9582902    -5.76468981e-05         -7.9582902    -5.76468981e-05        -13.9712471        -178.038053
55555556       -13.9762264        -1.99955345        -7.95827114    -6.09086424e-05        -7.95827114    -6.09086424e-05        -13.9709427        -178.001785
56565657         -13.97611        -2.03589229        -7.95825174    -6.42911285e-05        -7.95825174    -6.42911285e-05        -13.9706327         -177.96552
57575758       -13.9759915        -2.07223023        -7.95823198    -6.77965481e-05        -7.95823198    -6.77965481e-05        -13.9703172        -177.929259
58585859       -13.9758709        -2.10856725        -7.95821188    -7.14270926e-05        -7.95821188    -7.14270926e-05        -13.9699961        -177.893002
59595960       -13.9757482        -2.14490334        -7.95819142    -7.51849533e-05        -7.95819142    -7.51849533e-05        -13.9696694        -177.856748
60606061       -13.9756234        -2.18123849        -7.95817062    -7.90723212e-05        -7.95817062    -7.90723212e-05        -13.9693372        -177.820498
61616162       -13.9754966        -2.21757266        -7.95814946    -8.30913872e-05        -7.95814946    -8.30913872e-05        -13.9689994        -177.784252
62626263       -13.9753676        -2.25390586        -7.95812796    -8.72443418e-05        -7.95812796    -8.72443418e-05        -13.9686561         -177.74801
63636364       -13.9752365        -2.29023805        -7.95810611    -9.15333754e-05        -7.95810611    -9.15333754e-05        -13.9683073        -177.711772
64646465       -13.9751034        -2.32656924        -7.95808391    -9.59606783e-05        -7.95808391    -9.59606783e-05        -13.9679529        -177.675538
65656566       -13.9749682         -2.3628994        -7.95806136     -0.00010052844        -7.95806136     -0.00010052844        -13.9675929        -177.639308
66666667       -13.9748308        -2.39922851        -7.95803846    -0.000105238852        -7.95803846    -0.000105238852        -13.9672274        -177.603082
67676768       -13.9746914        -2.43555656        -7.95801522    -0.000110094101        -7.95801522    -0.000110094101        -13.9668563        -177.566861
68686869       -13.9745499        -2.47188353        -7.95799162    -0.000115096378        -7.95799162    -0.000115096378        -13.9664797        -177.530644
69696970       -13.9744063        -2.50820941        -7.95796767    -0.000120247872        -7.95796767    -0.000120247872        -13.9660976        -177.494431
70707071       -13.9742606        -2.54453418        -7.95794338    -0.000125550772        -7.95794338    -0.000125550772        -13.9657099        -177.458222
71717172       -13.9741128        -2.58085783        -7.95791874    -0.000131007265        -7.95791874    -0.000131007265        -13.9653167        -177.422018
72727273       -13.9739629        -2.61718033        -7.95789374    -0.000136619541        -7.95789374    -0.000136619541         -13.964918        -177.385819
73737374        -13.973811        -2.65350168         -7.9578684    -0.000142389788         -7.9578684    -0.000142389788        -13.9645137        -177.349624
74747475       -13.9736569        -2.68982185        -7.95784271    -0.000148320193        -7.95784271    -0.000148320193        -13.9641039        -177.313434
75757576       -13.9735007        -2.72614084        -7.95781667    -0.000154412943        -7.95781667    -0.000154412943        -13.9636885        -177.277248
76767677       -13.9733425        -2.76245862        -7.95779028    -0.000160670227        -7.95779028    -0.000160670227        -13.9632676        -177.241067
77777778       -13.9731822        -2.79877518        -7.95776355    -0.000167094231        -7.95776355    -0.000167094231        -13.9628412        -177.204892
78787879       -13.9730198        -2.83509051        -7.95773646    -0.000173687141        -7.95773646    -0.000173687141        -13.9624093        -177.168721
79797980       -13.9728553        -2.87140458        -7.95770903    -0.000180451145        -7.95770903    -0.000180451145        -13.9619719        -177.132555
80808081       -13.9726887        -2.90771738        -7.95768125    -0.000187388428        -7.95768125    -0.000187388428        -13.9615289        -177.096394
81818182         -13.97252        -2.94402889        -7.95765312    -0.000194501177        -7.95765312    -0.000194501177        -13.9610804        -177.060238
82828283       -13.9723492        -2.98033911        -7.95762464    -0.000201791577        -7.95762464    -0.000201791577        -13.9606264        -177.024088
83838384       -13.9721764        -3.01664801        -7.95759581    -0.000209261814        -7.95759581    -0.000209261814        -13.9601669        -176.987942
84848485       -13.9720014        -3.05295558        -7.95756663    -0.000216914072        -7.95756663    -0.000216914072        -13.9597018        -176.951802
85858586       -13.9718244         -3.0892618         -7.9575371    -0.000224750536         -7.9575371    -0.000224750536        -13.9592313        -176.915667
86868687       -13.9716453        -3.12556665        -7.95750723    -0.000232773391        -7.95750723    -0.000232773391        -13.9587552        -176.879538
87878788       -13.9714641        -3.16187012        -7.95747701    -0.000240984821        -7.95747701    -0.000240984821        -13.9582736        -176.843414
88888889       -13.9712808         -3.1981722        -7.95744644     -0.00024938701        -7.95744644     -0.00024938701        -13.9577866        -176.807296
89898990       -13.9710955        -3.23447287        -7.95741552    -0.000257982141        -7.95741552    -0.000257982141         -13.957294        -176.771183
90909091        -13.970908         -3.2707721        -7.95738425    -0.000266772397        -7.95738425    -0.000266772397        -13.9567959        -176.735077
91919192       -13.9707185         -3.3070699        -7.95735263    -0.000275759963        -7.95735263    -0.000275759963        -13.9562923        -176.698975
92929293       -13.9705268        -3.34336623        -7.95732067    -0.000284947019        -7.95732067    -0.000284947019        -13.9557833         -176.66288
93939394       -13.9703331        -3.37966109        -7.95728836    -0.000294335749        -7.95728836    -0.000294335749        -13.9552687         -176.62679
94949495       -13.9701373        -3.41595445         -7.9572557    -0.000303928335         -7.9572557    -0.000303928335        -13.9547486        -176.590707
95959596       -13.9699395        -3.45224631        -7.95722269    -0.000313726958        -7.95722269    -0.000313726958        -13.9542231        -176.554629
96969697       -13.9697395        -3.48853664        -7.95718933    -0.000323733799        -7.95718933    -0.000323733799        -13.9536921        -176.518557
97979798       -13.9695375        -3.52482544        -7.95715562     -0.00033395104        -7.95715562     -0.00033395104        -13.9531555        -176.482492
98989899       -13.9693333        -3.56111268        -7.95712157     -0.00034438086        -7.95712157     -0.00034438086        -13.9526135        -176.446433
100000000       -13.9691271        -3.59739834        -7.95708717    -0.000355025442        -7.95708717    -0.000355025442         -13.952066        -176.410379
