! Created Thu Nov 16 12:00:02 2023
# mhz S ri R 50
! 2 Port Network Data from SP1.SP block
! freq  reS11  imS11  reS21  imS21  reS12  imS12  reS22  imS22  
!     
1       0.993186828       -0.081053437     -0.00082885139     9.08557789e-05     -0.00082885139     9.08557789e-05         0.31002515      -0.0126596003
1.19839679       0.990251622      -0.0968100438       -0.001184953     0.000155759083       -0.001184953     0.000155759083        0.309886558      -0.0151626421
1.39679359       0.986814601       -0.112394809      -0.0016011741     0.000245498101      -0.0016011741     0.000245498101        0.309723594       -0.017661119
1.59519038       0.982889155       -0.127782246     -0.00207552641     0.000363742432     -0.00207552641     0.000363742432        0.309536567      -0.0201543418
1.79358717       0.978490349        -0.14294815     -0.00260577271     0.000513970591     -0.00260577271     0.000513970591        0.309325824      -0.0226416498
1.99198397       0.973634786       -0.157869727     -0.00318944832     0.000699450699     -0.00318944832     0.000699450699        0.309091747       -0.025122414
2.19038076       0.968340447       -0.172525703     -0.00382388415     0.000923223912     -0.00382388415     0.000923223912        0.308834752      -0.0275960396
2.38877756        0.96262653       -0.186896418     -0.00450623096      0.00118809069     -0.00450623096      0.00118809069        0.308555282      -0.0300619681
2.58717435       0.956513284       -0.200963899     -0.00523348446      0.00149659999     -0.00523348446      0.00149659999        0.308253807      -0.0325196786
2.78557114       0.950021836       -0.214711912     -0.00600251084      0.00185104141     -0.00600251084      0.00185104141        0.307930815      -0.0349686893
2.98396794       0.943174019       -0.228125996     -0.00681007237      0.00225344012     -0.00681007237      0.00225344012        0.307586814      -0.0374085585
3.18236473       0.935992203       -0.241193475     -0.00765285279      0.00270555473     -0.00765285279      0.00270555473        0.307222323      -0.0398388843
3.38076152        0.92849913       -0.253903463     -0.00852748201      0.00320887765     -0.00852748201      0.00320887765        0.306837873      -0.0422593052
3.57915832       0.920717753       -0.266246835     -0.00943056004      0.00376463806     -0.00943056004      0.00376463806           0.306434      -0.0446694993
3.77755511       0.912671083       -0.278216201      -0.0103586797      0.00437380701      -0.0103586797      0.00437380701        0.306011243      -0.0470691838
3.9759519        0.90438205       -0.289805851      -0.0113084479      0.00503710471      -0.0113084479      0.00503710471        0.305570139      -0.0494581137
4.1743487        0.89587336       -0.301011701      -0.0122765059      0.00575500953      -0.0122765059      0.00575500953        0.305111225      -0.0518360807
4.37274549       0.887167386       -0.311831216       -0.013259547      0.00652776855       -0.013259547      0.00652776855        0.304635029      -0.0542029115
4.57114228       0.878286044       -0.322263336      -0.0142543337      0.00735540947      -0.0142543337      0.00735540947        0.304142071      -0.0565584661
4.76953908       0.869250707       -0.332308387      -0.0152577117      0.00823775348      -0.0152577117      0.00823775348         0.30363286       -0.058902636
4.96793587       0.860082106       -0.341967989      -0.0162666235      0.00917442902      -0.0162666235      0.00917442902        0.303107893      -0.0612353421
5.16633267       0.850800268       -0.351244963       -0.017278119        0.010164886       -0.017278119        0.010164886        0.302567652      -0.0635565323
5.36472946       0.841424444       -0.360143229      -0.0182893649       0.0112084105      -0.0182893649       0.0112084105        0.302012603      -0.0658661799
5.56312625       0.831973063       -0.368667713      -0.0192976524       0.0123041394      -0.0192976524       0.0123041394        0.301443196       -0.068164281
5.76152305       0.822463688       -0.376824244      -0.0203004032       0.0134510753      -0.0203004032       0.0134510753        0.300859861      -0.0704508525
5.95991984       0.812912994       -0.384619456       -0.021295174       0.0146481011       -0.021295174       0.0146481011        0.300263011      -0.0727259298
6.15831663       0.803336737       -0.392060697      -0.0222796591       0.0158939939      -0.0222796591       0.0158939939         0.29965304       -0.074989565
6.35671343       0.793749751       -0.399155935      -0.0232516926       0.0171874391      -0.0232516926       0.0171874391        0.299030322      -0.0772418245
6.55511022       0.784165942       -0.405913668      -0.0242092484       0.0185270434      -0.0242092484       0.0185270434        0.298395213      -0.0794827873
6.75350701       0.774598291       -0.412342843      -0.0251504401       0.0199113475      -0.0251504401       0.0199113475        0.297748047       -0.081712543
6.95190381       0.765058866       -0.418452773       -0.026073519       0.0213388381       -0.026073519       0.0213388381        0.297089142      -0.0839311901
7.1503006       0.755558836       -0.424253066      -0.0269768719       0.0228079587      -0.0269768719       0.0228079587        0.296418794      -0.0861388343
7.34869739       0.746108495       -0.429753553      -0.0278590181       0.0243171204      -0.0278590181       0.0243171204        0.295737285      -0.0883355873
7.54709419       0.736717282       -0.434964223      -0.0287186054       0.0258647112      -0.0287186054       0.0258647112        0.295044874      -0.0905215649
7.74549098       0.727393813       -0.439895169      -0.0295544062       0.0274491051      -0.0295544062       0.0274491051        0.294341807      -0.0926968858
7.94388778       0.718145911       -0.444556527      -0.0303653127         0.02906867      -0.0303653127         0.02906867        0.293628312      -0.0948616708
8.14228457       0.708980637       -0.448958432      -0.0311503318       0.0307217749      -0.0311503318       0.0307217749          0.2929046      -0.0970160413
8.34068136        0.69990433       -0.453110973      -0.0319085801       0.0324067969      -0.0319085801       0.0324067969         0.29217087      -0.0991601185
8.53907816       0.690922635       -0.457024156      -0.0326392788       0.0341221264      -0.0326392788       0.0341221264        0.291427304       -0.101294023
8.73747495       0.682040547       -0.460707863      -0.0333417477       0.0358661729      -0.0333417477       0.0358661729        0.290674072       -0.103417872
8.93587174       0.673262441        -0.46417183      -0.0340153999       0.0376373691      -0.0340153999       0.0376373691        0.289911331       -0.105531782
9.13426854       0.664592114       -0.467425615      -0.0346597368        0.039434175      -0.0346597368        0.039434175        0.289139226       -0.107635867
9.33266533       0.656032817       -0.470478578      -0.0352743419       0.0412550814      -0.0352743419       0.0412550814         0.28835789       -0.109730234
9.53106212       0.647587295       -0.473339861       -0.035858876       0.0430986124       -0.035858876       0.0430986124        0.287567449       -0.111814991
9.72945892       0.639257816       -0.476018375       -0.036413072       0.0449633281       -0.036413072       0.0449633281        0.286768017       -0.113890237
9.92785571        0.63104621       -0.478522782      -0.0369367295       0.0468478264      -0.0369367295       0.0468478264        0.285959698       -0.115956069
10.1262525       0.622953899       -0.480861489      -0.0374297101       0.0487507443      -0.0374297101       0.0487507443        0.285142591        -0.11801258
10.3246493       0.614981929       -0.483042641       -0.037891933       0.0506707595       -0.037891933       0.0506707595        0.284316786       -0.120059856
10.5230461       0.607130998       -0.485074111      -0.0383233699       0.0526065909      -0.0383233699       0.0526065909        0.283482366       -0.122097979
10.7214429        0.59940149       -0.486963503      -0.0387240411       0.0545569992      -0.0387240411       0.0545569992        0.282639409       -0.124127025
10.9198397       0.591793496       -0.488718143      -0.0390940115       0.0565207872      -0.0390940115       0.0565207872        0.281787987       -0.126147068
11.1182365       0.584306844       -0.490345085      -0.0394333862       0.0584967998      -0.0394333862       0.0584967998        0.280928166       -0.128158172
11.3166333       0.576941121        -0.49185111      -0.0397423074       0.0604839239      -0.0397423074       0.0604839239        0.280060009         -0.1301604
11.5150301       0.569695697       -0.493242726      -0.0400209509        0.062481088      -0.0400209509        0.062481088        0.279183574       -0.132153809
11.7134269       0.562569747       -0.494526177      -0.0402695225       0.0644872616      -0.0402695225       0.0644872616        0.278298917       -0.134138449
11.9118236        0.55556227        -0.49570744       -0.040488255       0.0665014547       -0.040488255       0.0665014547        0.277406091       -0.136114368
12.1102204       0.548672111       -0.496792238       -0.040677406       0.0685227171       -0.040677406       0.0685227171        0.276505143       -0.138081609
12.3086172       0.541897971       -0.497786039      -0.0408372545       0.0705501375      -0.0408372545       0.0705501375        0.275596122       -0.140040207
12.507014       0.535238434       -0.498694066      -0.0409680986       0.0725828425      -0.0409680986       0.0725828425        0.274679073       -0.141990198
12.7054108       0.528691972       -0.499521302      -0.0410702537       0.0746199956      -0.0410702537       0.0746199956        0.273754039        -0.14393161
12.9038076       0.522256967       -0.500272499      -0.0411440498       0.0766607966      -0.0411440498       0.0766607966        0.272821063       -0.145864467
13.1022044       0.515931717       -0.500952181      -0.0411898298       0.0787044798      -0.0411898298       0.0787044798        0.271880187       -0.147788791
13.3006012       0.509714455       -0.501564657      -0.0412079478       0.0807503136      -0.0412079478       0.0807503136         0.27093145         -0.1497046
13.498998       0.503603354       -0.502114022      -0.0411987672        0.082797599      -0.0411987672        0.082797599        0.269974894       -0.151611906
13.6973948        0.49759654       -0.502604171      -0.0411626595       0.0848456687      -0.0411626595       0.0848456687        0.269010557        -0.15351072
13.8957916         0.4916921       -0.503038803      -0.0411000025       0.0868938858      -0.0411000025       0.0868938858        0.268038479        -0.15540105
14.0941884       0.485888093       -0.503421427      -0.0410111793       0.0889416426      -0.0410111793       0.0889416426          0.2670587       -0.157282899
14.2925852       0.480182553       -0.503755374      -0.0408965771       0.0909883601      -0.0408965771       0.0909883601        0.266071259       -0.159156268
14.490982         0.4745735       -0.504043799      -0.0407565862       0.0930334861      -0.0407565862       0.0930334861        0.265076196       -0.161021157
14.6893788       0.469058944       -0.504289695      -0.0405915989       0.0950764946      -0.0405915989       0.0950764946        0.264073553       -0.162877561
14.8877756       0.463636893       -0.504495891      -0.0404020086       0.0971168847      -0.0404020086       0.0971168847        0.263063368       -0.164725474
15.0861723       0.458305355       -0.504665068      -0.0401882093       0.0991541797      -0.0401882093       0.0991541797        0.262045685       -0.166564887
15.2845691       0.453062344        -0.50479976      -0.0399505945        0.101187925      -0.0399505945        0.101187925        0.261020546        -0.16839579
15.4829659       0.447905887       -0.504902362      -0.0396895569         0.10321769      -0.0396895569         0.10321769        0.259987992       -0.170218169
15.6813627       0.442834022       -0.504975137      -0.0394054876        0.105243064      -0.0394054876        0.105243064        0.258948069       -0.172032012
15.8797595       0.437844806       -0.505020223      -0.0390987758        0.107263655      -0.0390987758        0.107263655        0.257900821       -0.173837301
16.0781563       0.432936315       -0.505039635      -0.0387698082        0.109279093      -0.0387698082        0.109279093        0.256846293        -0.17563402
16.2765531       0.428106649       -0.505035276      -0.0384189685        0.111289026      -0.0384189685        0.111289026        0.255784532       -0.177422149
16.4749499       0.423353931       -0.505008938      -0.0380466373        0.113293117      -0.0380466373        0.113293117        0.254715586        -0.17920167
16.6733467       0.418676312       -0.504962311      -0.0376531917        0.115291049      -0.0376531917        0.115291049        0.253639503        -0.18097256
16.8717435       0.414071972       -0.504896984       -0.037239005         0.11728252       -0.037239005         0.11728252        0.252556333       -0.182734797
17.0701403        0.40953912       -0.504814455      -0.0368044464        0.119267243      -0.0368044464        0.119267243        0.251466127        -0.18448836
17.2685371       0.405075996       -0.504716131      -0.0363498809        0.121244945      -0.0363498809        0.121244945        0.250368936       -0.186233223
17.4669339       0.400680873       -0.504603336      -0.0358756692        0.123215369      -0.0358756692        0.123215369        0.249264813       -0.187969362
17.6653307       0.396352055       -0.504477312      -0.0353821674         0.12517827      -0.0353821674         0.12517827        0.248153812       -0.189696754
17.8637275       0.392087881       -0.504339228      -0.0348697269        0.127133416      -0.0348697269        0.127133416        0.247035989       -0.191415371
18.0621242       0.387886725       -0.504190177      -0.0343386944        0.129080586      -0.0343386944        0.129080586        0.245911398       -0.193125189
18.260521       0.383746991       -0.504031187      -0.0337894119        0.131019573      -0.0337894119        0.131019573        0.244780098        -0.19482618
18.4589178       0.379667123       -0.503863219      -0.0332222163        0.132950178      -0.0332222163        0.132950178        0.243642146        -0.19651832
18.6573146       0.375645595       -0.503687173      -0.0326374399        0.134872215      -0.0326374399        0.134872215        0.242497601        -0.19820158
18.8557114       0.371680919       -0.503503893      -0.0320354097        0.136785508      -0.0320354097        0.136785508        0.241346523       -0.199875935
19.0541082       0.367771639       -0.503314166      -0.0314164482        0.138689888      -0.0314164482        0.138689888        0.240188974       -0.201541358
19.252505       0.363916336       -0.503118727      -0.0307808725        0.140585198      -0.0307808725        0.140585198        0.239025015       -0.203197821
19.4509018       0.360113624       -0.502918262      -0.0301289952        0.142471288      -0.0301289952        0.142471288        0.237854709         -0.2048453
19.6492986       0.356362149       -0.502713413      -0.0294611237        0.144348017      -0.0294611237        0.144348017        0.236678121       -0.206483767
19.8476954       0.352660594       -0.502504774      -0.0287775607        0.146215252      -0.0287775607        0.146215252        0.235495314       -0.208113195
20.0460922       0.349007674       -0.502292901      -0.0280786041        0.148072867      -0.0280786041        0.148072867        0.234306355        -0.20973356
20.244489       0.345402134       -0.502078307      -0.0273645467        0.149920742      -0.0273645467        0.149920742         0.23311131       -0.211344836
20.4428858       0.341842756       -0.501861473      -0.0266356771        0.151758768      -0.0266356771        0.151758768        0.231910246       -0.212946997
20.6412826       0.338328351       -0.501642841      -0.0258922786        0.153586837      -0.0258922786        0.153586837        0.230703231       -0.214540019
20.8396794       0.334857761       -0.501422821      -0.0251346305        0.155404853      -0.0251346305        0.155404853        0.229490333       -0.216123877
21.0380762        0.33142986       -0.501201792      -0.0243630071         0.15721272      -0.0243630071         0.15721272        0.228271623       -0.217698547
21.2364729       0.328043553       -0.500980106      -0.0235776783        0.159010353      -0.0235776783        0.159010353         0.22704717       -0.219264006
21.4348697       0.324697771       -0.500758082      -0.0227789097        0.160797668      -0.0227789097        0.160797668        0.225817045       -0.220820231
21.6332665       0.321391479       -0.500536019      -0.0219669624        0.162574591      -0.0219669624        0.162574591         0.22458132         -0.2223672
21.8316633       0.318123666       -0.500314187      -0.0211420934        0.164341048      -0.0211420934        0.164341048        0.223340066       -0.223904891
22.0300601       0.314893351       -0.500092836      -0.0203045552        0.166096973      -0.0203045552        0.166096973        0.222093356       -0.225433283
22.2284569       0.311699581       -0.499872191      -0.0194545965        0.167842303      -0.0194545965        0.167842303        0.220841264       -0.226952356
22.4268537       0.308541428       -0.499652459      -0.0185924617        0.169576981      -0.0185924617        0.169576981        0.219583862        -0.22846209
22.6252505        0.30541799       -0.499433827      -0.0177183913        0.171300952      -0.0177183913        0.171300952        0.218321226       -0.229962466
22.8236473       0.302328392       -0.499216464      -0.0168326218        0.173014166      -0.0168326218        0.173014166        0.217053429       -0.231453465
23.0220441       0.299271782       -0.499000523       -0.015935386        0.174716578       -0.015935386        0.174716578        0.215780546        -0.23293507
23.2204409       0.296247334       -0.498786138      -0.0150269127        0.176408143      -0.0150269127        0.176408143        0.214502654       -0.234407265
23.4188377       0.293254243       -0.498573431      -0.0141074273        0.178088824      -0.0141074273        0.178088824        0.213219828       -0.235870032
23.6172345        0.29029173       -0.498362509      -0.0131771514        0.179758584      -0.0131771514        0.179758584        0.211932143       -0.237323358
23.8156313       0.287359037       -0.498153465       -0.012236303        0.181417391       -0.012236303        0.181417391        0.210639677       -0.238767227
24.0140281       0.284455427       -0.497946381      -0.0112850968        0.183065216      -0.0112850968        0.183065216        0.209342506       -0.240201625
24.2124248       0.281580186       -0.497741326      -0.0103237439         0.18470203      -0.0103237439         0.18470203        0.208040708        -0.24162654
24.4108216        0.27873262        -0.49753836     -0.00935245208        0.186327811     -0.00935245208        0.186327811        0.206734359        -0.24304196
24.6092184       0.275912055       -0.497337531     -0.00837142601        0.187942538     -0.00837142601        0.187942538        0.205423536       -0.244447873
24.8076152       0.273117836       -0.497138878       -0.007380867        0.189546192       -0.007380867        0.189546192        0.204108319       -0.245844268
