# MHz S RI R 50

1.000000000000000e+00  1.3202562714000940e-01 -2.7739634472407765e-01  7.5468375142667321e-01 -1.8493089648271849e-01  7.5468375142667299e-01 -1.8493089648271838e-01  1.6978916761778209e-01 -1.2328726432181239e-01
1.098196392785571e+00  1.1896624531908782e-01 -3.0112129818298905e-01  7.4597749687939185e-01 -2.0074753212199220e-01  7.4597749687939174e-01 -2.0074753212199206e-01  1.6398499791959484e-01 -1.3383168808132875e-01
1.196392785571142e+00  1.0502513630755153e-01 -3.2395927475153219e-01  7.3668342420503474e-01 -2.1597284983435497e-01  7.3668342420503452e-01 -2.1597284983435491e-01  1.5778894947002295e-01 -1.4398189988956991e-01
1.294589178356713e+00  9.0278819681627293e-02 -3.4587089928409775e-01  7.2685254645441799e-01 -2.3058059952273188e-01  7.2685254645441810e-01 -2.3058059952273174e-01  1.5123503096961211e-01 -1.5372039968182130e-01
1.392785571142285e+00  7.4804958092027279e-02 -3.6682455175632411e-01  7.1653663872801832e-01 -2.4454970117088282e-01  7.1653663872801809e-01 -2.4454970117088268e-01  1.4435775915201213e-01 -1.6303313411392181e-01
1.490981963927856e+00  5.8681489778194991e-02 -3.8679618784943487e-01  7.0578765985213032e-01 -2.5786412523295671e-01  7.0578765985213021e-01 -2.5786412523295660e-01  1.3719177323475343e-01 -1.7190941682197119e-01
1.589178356713427e+00  4.1985825924550357e-02 -4.0576905954223885e-01  6.9465721728303365e-01 -2.7051270636149266e-01  6.9465721728303353e-01 -2.7051270636149261e-01  1.2977147818868909e-01 -1.8034180424099508e-01
1.687374749498998e+00  2.4794123385485485e-02 -4.2373335098521181e-01  6.8319608225699058e-01 -2.8248890065680793e-01  6.8319608225699047e-01 -2.8248890065680798e-01  1.2213072150466023e-01 -1.8832593377120524e-01
1.785571142284569e+00  7.1806400938198593e-03 -4.4068574555207402e-01  6.7145376006254631e-01 -2.9379049703471594e-01  6.7145376006254642e-01 -2.9379049703471605e-01  1.1430250670836432e-01 -1.9586033135647726e-01
1.883767535070140e+00 -1.0782822590775978e-02 -4.5662893996066051e-01  6.5947811827281611e-01 -3.0441929330710710e-01  6.5947811827281611e-01 -3.0441929330710704e-01  1.0631874551521066e-01 -2.0294619553807150e-01
1.981963927855711e+00 -2.9027389134169457e-02 -4.7157112081571440e-01  6.4731507391055387e-01 -3.1438074721047626e-01  6.4731507391055376e-01 -3.1438074721047632e-01  9.8210049273702471e-02 -2.0958716480698419e-01
2.080160320641282e+00 -4.7487491681277395e-02 -4.8552541795341930e-01  6.3500833887914843e-01 -3.2368361196894624e-01  6.3500833887914843e-01 -3.2368361196894618e-01  9.0005559252765585e-02 -2.1578907464596417e-01
2.178356713426854e+00 -6.6101167585278384e-02 -4.9850934766770999e-01  6.2259922160981429e-01 -3.3233956511180657e-01  6.2259922160981429e-01 -3.3233956511180651e-01  8.1732814406543008e-02 -2.2155971007453784e-01
2.276553106212425e+00 -8.4810277355611460e-02 -5.1054425737574749e-01  6.1012648176292561e-01 -3.4036283825049835e-01  6.1012648176292583e-01 -3.4036283825049829e-01  7.3417654508617092e-02 -2.2690855883366556e-01
2.374749498997995e+00 -1.0356064903291771e-01 -5.2165478163073997e-01  5.9762623397805470e-01 -3.4776985442049341e-01  5.9762623397805481e-01 -3.4776985442049341e-01  6.5084155985369790e-02 -2.3184656961366221e-01
2.472945891783567e+00 -1.2230215588151656e-01 -5.3186831769898291e-01  5.8513189607898886e-01 -3.5457887846598879e-01  5.8513189607898874e-01 -3.5457887846598868e-01  5.6754597385992554e-02 -2.3638591897732583e-01
2.571142284569138e+00 -1.4098873482404009e-01 -5.4121452725508812e-01  5.7267417678397337e-01 -3.6080968483672549e-01  5.7267417678397337e-01 -3.6080968483672554e-01  4.8449451189315471e-02 -2.4053978989115035e-01
2.669338677354709e+00 -1.5957835327170694e-01 -5.4972486917043861e-01  5.6028109781886204e-01 -3.6648324611362570e-01  5.6028109781886204e-01 -3.6648324611362576e-01  4.0187398545908033e-02 -2.4432216407575053e-01
2.767535070140281e+00 -1.7803293197532472e-01 -5.5743216691587594e-01  5.4797804534978356e-01 -3.7162144461058405e-01  5.4797804534978345e-01 -3.7162144461058394e-01  3.1985363566522360e-02 -2.4774762974038930e-01
2.865731462925851e+00 -1.9631823128571321e-01 -5.6437021279778732e-01  5.3578784580952443e-01 -3.7624680853185821e-01  5.3578784580952443e-01 -3.7624680853185816e-01  2.3858563873016395e-02 -2.5083120568790551e-01
2.963927855711423e+00 -2.1440370781563692e-01 -5.7057341011250828e-01  5.2373086145624215e-01 -3.8038227340833891e-01  5.2373086145624204e-01 -3.8038227340833886e-01  1.5820574304161391e-02 -2.5358818227222596e-01
3.062124248496994e+00 -2.3226234798277967e-01 -5.7607645334256630e-01  5.1182510134481352e-01 -3.8405096889504409e-01  5.1182510134481352e-01 -3.8405096889504420e-01  7.8834008965424172e-03 -2.5603397926336280e-01
3.160320641282565e+00 -2.4987048432436290e-01 -5.8091404572707550e-01  5.0008634378375805e-01 -3.8727603048471698e-01  5.0008634378375805e-01 -3.8727603048471693e-01  5.7562522505440372e-05 -2.5818402032314464e-01
3.258517034068136e+00 -2.6720759984259362e-01 -5.8512065290881266e-01  4.8852826677160427e-01 -3.9008043527254171e-01  4.8852826677160427e-01 -3.9008043527254177e-01 -7.6478221522637930e-03 -2.6005362351502787e-01
3.356713426853707e+00 -2.8425612499447972e-01 -5.8873029087919915e-01  4.7716258333701345e-01 -3.9248686058613280e-01  4.7716258333701345e-01 -3.9248686058613286e-01 -1.5224944441990960e-02 -2.6165790705742181e-01
3.454909819639278e+00 -3.0100123130212469e-01 -5.9177634609394836e-01  4.6599917913191674e-01 -3.9451756406263216e-01  4.6599917913191680e-01 -3.9451756406263216e-01 -2.2667213912055478e-02 -2.6301170937508817e-01
3.553106212424849e+00 -3.1743062494763219e-01 -5.9429142539957736e-01  4.5504625003491184e-01 -3.9619428359971831e-01  4.5504625003491184e-01 -3.9619428359971820e-01 -2.9969166643392140e-02 -2.6412952239981219e-01
3.651302605210421e+00 -3.3353434314265568e-01 -5.9630723327704271e-01  4.4431043790489633e-01 -3.9753815551802862e-01  4.4431043790489616e-01 -3.9753815551802857e-01 -3.7126374730069217e-02 -2.6502543701201908e-01
3.749498997995992e+00 -3.4930455553474649e-01 -5.9785447385669899e-01  4.3379696297683573e-01 -3.9856964923779942e-01  4.3379696297683573e-01 -3.9856964923779936e-01 -4.4135358015442876e-02 -2.6571309949186628e-01
3.847695390781563e+00 -3.6473537243586313e-01 -5.9896277517285057e-01  4.2350975170942462e-01 -3.9930851678190032e-01  4.2350975170942462e-01 -3.9930851678190027e-01 -5.0993498860383582e-02 -2.6620567785460025e-01
3.945891783567134e+00 -3.7982266123478797e-01 -5.9966063319210294e-01  4.1345155917680815e-01 -3.9977375546140209e-01  4.1345155917680809e-01 -3.9977375546140209e-01 -5.7698960548794670e-02 -2.6651583697426789e-01
4.044088176352705e+00 -3.9456387198465215e-01 -5.9997537325477002e-01  4.0362408534356514e-01 -3.9998358216984670e-01  4.0362408534356520e-01 -3.9998358216984670e-01 -6.4250609770956618e-02 -2.6665572144656441e-01
4.142284569138276e+00 -4.0895787283754953e-01 -5.9993312670182342e-01  3.9402808477496687e-01 -3.9995541780121568e-01  3.9402808477496692e-01 -3.9995541780121563e-01 -7.0647943483355347e-02 -2.6663694520081049e-01
4.240480961923847e+00 -4.2300479572741029e-01 -5.9955882061190635e-01  3.8466346951505975e-01 -3.9970588040793759e-01  3.8466346951505981e-01 -3.9970588040793753e-01 -7.6891020323293369e-02 -2.6647058693862513e-01
4.338677354709418e+00 -4.3670589247622327e-01 -5.9887617873607568e-01  3.7552940501585130e-01 -3.9925078582405038e-01  3.7552940501585130e-01 -3.9925078582405049e-01 -8.2980396656099215e-02 -2.6616719054936705e-01
4.436873747494990e+00 -4.5006340131319778e-01 -5.9790773188591018e-01  3.6662439912453487e-01 -3.9860515459060691e-01  3.6662439912453482e-01 -3.9860515459060680e-01 -8.8917067250310178e-02 -2.6573676972707128e-01
4.535070140280562e+00 -4.6308042364720786e-01 -5.9667483619848483e-01  3.5794638423519470e-01 -3.9778322413232331e-01  3.5794638423519470e-01 -3.9778322413232320e-01 -9.4702410509870188e-02 -2.6518881608821548e-01
4.633266533066132e+00 -4.7576081081552940e-01 -5.9519769786565335e-01  3.4949279278964707e-01 -3.9679846524376894e-01  3.4949279278964707e-01 -3.9679846524376888e-01 -1.0033813814023541e-01 -2.6453231016251255e-01
4.731462925851702e+00 -4.8810906044225599e-01 -5.9349540307232607e-01  3.4126062637182919e-01 -3.9566360204821738e-01  3.4126062637182925e-01 -3.9566360204821732e-01 -1.0582624908544716e-01 -2.6377573469881160e-01
4.829659318637274e+00 -5.0013022197391566e-01 -5.9158595203694142e-01  3.3324651868405630e-01 -3.9439063469129437e-01  3.3324651868405625e-01 -3.9439063469129432e-01 -1.1116898754396251e-01 -2.6292708979419621e-01
4.927855711422845e+00 -5.1182981091402469e-01 -5.8948629618586845e-01  3.2544679272398358e-01 -3.9299086412391232e-01  3.2544679272398352e-01 -3.9299086412391232e-01 -1.1636880485067765e-01 -2.6199390941594158e-01
5.026052104208417e+00 -5.2321373124932147e-01 -5.8721237762126577e-01  3.1785751250045230e-01 -3.9147491841417714e-01  3.1785751250045235e-01 -3.9147491841417720e-01 -1.2142832499969855e-01 -2.6098327894278472e-01
5.124248496993988e+00 -5.3428820554520462e-01 -5.8477917015865821e-01  3.1047452963653044e-01 -3.8985278010577212e-01  3.1047452963653038e-01 -3.8985278010577212e-01 -1.2635031357564641e-01 -2.5990185340384803e-01
5.222444889779559e+00 -5.4505971218388938e-01 -5.8220072131622014e-01  3.0329352521074032e-01 -3.8813381421081350e-01  3.0329352521074038e-01 -3.8813381421081355e-01 -1.3113764985950649e-01 -2.5875587614054235e-01
5.320641282565130e+00 -5.5553492922366843e-01 -5.7949019473273966e-01  2.9631004718422110e-01 -3.8632679648849311e-01  2.9631004718422110e-01 -3.8632679648849311e-01 -1.3579330187718600e-01 -2.5755119765899548e-01
5.418837675350701e+00 -5.6572068436947487e-01 -5.7665991257595905e-01  2.8951954375368344e-01 -3.8443994171730611e-01  2.8951954375368344e-01 -3.8443994171730611e-01 -1.4032030416421101e-01 -2.5629329447820404e-01
5.517034068136272e+00 -5.7562391056203976e-01 -5.7372139757803764e-01  2.8291739295864027e-01 -3.8248093171869180e-01  2.8291739295864021e-01 -3.8248093171869180e-01 -1.4472173802757324e-01 -2.5498728781246122e-01
5.615230460921843e+00 -5.8525160671385701e-01 -5.7068541440090659e-01  2.7649892885742872e-01 -3.8045694293393773e-01  2.7649892885742877e-01 -3.8045694293393773e-01 -1.4900071409504748e-01 -2.5363796195595845e-01
5.713426853707414e+00 -5.9461080314380699e-01 -5.6756201009204477e-01  2.7025946457079536e-01 -3.7837467339469655e-01  2.7025946457079530e-01 -3.7837467339469649e-01 -1.5316035695280306e-01 -2.5224978226313105e-01
5.811623246492985e+00 -6.0370853128763369e-01 -5.6436055344135749e-01  2.6419431247491088e-01 -3.7624036896090490e-01  2.6419431247491088e-01 -3.7624036896090490e-01 -1.5720379168339266e-01 -2.5082691264060331e-01
5.909819639278557e+00 -6.1255179728775644e-01 -5.6108977309316954e-01  2.5829880180816228e-01 -3.7405984872877968e-01  2.5829880180816234e-01 -3.7405984872877973e-01 -1.6113413212789185e-01 -2.4937323248585319e-01
6.008016032064128e+00 -6.2114755909250985e-01 -5.5775779430450356e-01  2.5256829393832680e-01 -3.7183852953633578e-01  2.5256829393832680e-01 -3.7183852953633573e-01 -1.6495447070778224e-01 -2.4789235302422377e-01
6.106212424849699e+00 -6.2950270672132791e-01 -5.5437217427246843e-01  2.4699819551911467e-01 -3.6958144951497890e-01  2.4699819551911473e-01 -3.6958144951497895e-01 -1.6866786965392358e-01 -2.4638763300998595e-01
6.204408817635270e+00 -6.3762404537826078e-01 -5.5093993598038449e-01  2.4158396974782614e-01 -3.6729329065358973e-01  2.4158396974782617e-01 -3.6729329065358968e-01 -1.7227735350144921e-01 -2.4486219376905990e-01
6.302605210420841e+00 -6.4551828112124143e-01 -5.4746760053474508e-01  2.3632114591917239e-01 -3.6497840035649665e-01  2.3632114591917244e-01 -3.6497840035649670e-01 -1.7578590272055178e-01 -2.4331893357099782e-01
6.400801603206412e+00 -6.5319200881849782e-01 -5.4396121798383168e-01  2.3120532745433472e-01 -3.6264081198922116e-01  2.3120532745433472e-01 -3.6264081198922116e-01 -1.7919644836377682e-01 -2.4176054132614744e-01
6.498997995991983e+00 -6.6065170214629720e-01 -5.4042639662421910e-01  2.2623219856913512e-01 -3.6028426441614614e-01  2.2623219856913510e-01 -3.6028426441614614e-01 -1.8251186762057658e-01 -2.4018950961076407e-01
6.597194388777555e+00 -6.6790370540369992e-01 -5.3686833081396002e-01  2.2139752973086682e-01 -3.5791222054263999e-01  2.2139752973086679e-01 -3.5791222054263994e-01 -1.8573498017942205e-01 -2.3860814702842673e-01
6.695390781563125e+00 -6.7495422694018292e-01 -5.3329182732133296e-01  2.1669718203987809e-01 -3.5552788488088866e-01  2.1669718203987812e-01 -3.5552788488088866e-01 -1.8886854530674796e-01 -2.3701858992059233e-01
6.793587174348697e+00 -6.8180933401080979e-01 -5.2970133024600186e-01  2.1212711065946016e-01 -3.5313422016400120e-01  2.1212711065946016e-01 -3.5313422016400120e-01 -1.9191525956035987e-01 -2.3542281344266752e-01
6.891783567134269e+00 -6.8847494889109973e-01 -5.2610094455558376e-01  2.0768336740593349e-01 -3.5073396303705584e-01  2.0768336740593346e-01 -3.5073396303705578e-01 -1.9487775506271099e-01 -2.3382264202470385e-01
6.989979959919839e+00 -6.9495684609992803e-01 -5.2249445828523711e-01  2.0336210260004797e-01 -3.4832963885682472e-01  2.0336210260004800e-01 -3.4832963885682472e-01 -1.9775859826663467e-01 -2.3221975923788307e-01
7.088176352705410e+00 -7.0126065059369713e-01 -5.1888536345117930e-01  1.9915956627086856e-01 -3.4592357563411941e-01  1.9915956627086859e-01 -3.4592357563411952e-01 -2.0056028915275431e-01 -2.3061571708941295e-01
7.186372745490981e+00 -7.0739183680870099e-01 -5.1527687573126446e-01  1.9507210879419939e-01 -3.4351791715417629e-01  1.9507210879419934e-01 -3.4351791715417629e-01 -2.0328526080386705e-01 -2.2901194476945097e-01
7.284569138276552e+00 -7.1335572844116690e-01 -5.1167195296704104e-01  1.9109618103922218e-01 -3.4111463531136066e-01  1.9109618103922216e-01 -3.4111463531136060e-01 -2.0593587930718524e-01 -2.2740975687424037e-01
7.382765531062124e+00 -7.1915749886590219e-01 -5.0807331254225652e-01  1.8722833408939848e-01 -3.3871554169483770e-01  1.8722833408939848e-01 -3.3871554169483775e-01 -2.0851444394040097e-01 -2.2581036112989178e-01
7.480961923847695e+00 -7.2480217210492981e-01 -5.0448344769270637e-01  1.8346521859671347e-01 -3.3632229846180428e-01  1.8346521859671347e-01 -3.3632229846180423e-01 -2.1102318760219108e-01 -2.2421486564120285e-01
7.579158316633266e+00 -7.3029462426698355e-01 -5.0090464280173330e-01  1.7980358382201092e-01 -3.3393642853448890e-01  1.7980358382201092e-01 -3.3393642853448890e-01 -2.1346427745199276e-01 -2.2262428568965928e-01
7.677354709418837e+00 -7.3563958538735708e-01 -4.9733898773472701e-01  1.7624027640842863e-01 -3.3155932515648473e-01  1.7624027640842860e-01 -3.3155932515648467e-01 -2.1583981572771427e-01 -2.2103955010432313e-01
7.775551102204408e+00 -7.4084164160539667e-01 -4.9378839126465740e-01  1.7277223892973556e-01 -3.2919226084310499e-01  1.7277223892973559e-01 -3.2919226084310493e-01 -2.1815184071350965e-01 -2.1946150722873659e-01
7.873747494989980e+00 -7.4590523762398742e-01 -4.9025459363915486e-01  1.6939650825067509e-01 -3.2683639575943657e-01  1.6939650825067509e-01 -3.2683639575943652e-01 -2.2040232783288324e-01 -2.1789093050629105e-01
7.971943887775550e+00 -7.5083467940174042e-01 -4.8673917833792463e-01  1.6611021373217305e-01 -3.2449278555861644e-01  1.6611021373217305e-01 -3.2449278555861644e-01 -2.2259319084521795e-01 -2.1632852370574435e-01
8.070140280561121e+00 -7.5563413703432836e-01 -4.8324358306743043e-01  1.6291057531044772e-01 -3.2216238871162023e-01  1.6291057531044778e-01 -3.2216238871162028e-01 -2.2472628312636816e-01 -2.1477492580774693e-01
8.168336673346692e+00 -7.6030764778656490e-01 -4.7976911003785211e-01  1.5979490147562345e-01 -3.1984607335856807e-01  1.5979490147562345e-01 -3.1984607335856807e-01 -2.2680339901625104e-01 -2.1323071557237874e-01
8.266533066132263e+00 -7.6485911924146743e-01 -4.7631693556532362e-01  1.5676058717235505e-01 -3.1754462371021575e-01  1.5676058717235505e-01 -3.1754462371021575e-01 -2.2882627521842999e-01 -2.1169641580681051e-01
8.364729458917836e+00 -7.6929233253668317e-01 -4.7288811904045108e-01  1.5380511164221122e-01 -3.1525874602696735e-01  1.5380511164221120e-01 -3.1525874602696735e-01 -2.3079659223852581e-01 -2.1017249735131163e-01
8.462925851703405e+00 -7.7361094566238642e-01 -4.6948361130209565e-01  1.5092603622507564e-01 -3.1298907420139710e-01  1.5092603622507564e-01 -3.1298907420139715e-01 -2.3271597584994952e-01 -2.0865938280093135e-01
8.561122244488976e+00 -7.7781849679807835e-01 -4.6610426245341335e-01  1.4812100213461443e-01 -3.1073617496894224e-01  1.4812100213461446e-01 -3.1073617496894229e-01 -2.3458599857692367e-01 -2.0715744997929483e-01
8.659318637274549e+00 -7.8191840766868459e-01 -4.6275082915519078e-01  1.4538772822087700e-01 -3.0850055277012717e-01  1.4538772822087703e-01 -3.0850055277012722e-01 -2.3640818118608201e-01 -2.0566703518008481e-01
8.757515030060119e+00 -7.8591398690300684e-01 -4.5942398142960039e-01  1.4272400873132873e-01 -3.0628265428640028e-01  1.4272400873132876e-01 -3.0628265428640028e-01 -2.3818399417911418e-01 -2.0418843619093349e-01
8.855711422845690e+00 -7.8980843337992701e-01 -4.5612430900565570e-01  1.4012771108004865e-01 -3.0408287267043715e-01  1.4012771108004862e-01 -3.0408287267043710e-01 -2.3991485927996753e-01 -2.0272191511362472e-01
8.953907815631263e+00 -7.9360483954986649e-01 -4.5285232723584817e-01  1.3759677363342221e-01 -3.0190155149056547e-01  1.3759677363342221e-01 -3.0190155149056547e-01 -2.4160215091105186e-01 -2.0126770099371030e-01
9.052104208416834e+00 -7.9730619472086495e-01 -4.4960848261173442e-01  1.3512920351942342e-01 -2.9973898840782287e-01  1.3512920351942345e-01 -2.9973898840782293e-01 -2.4324719765371772e-01 -1.9982599227188191e-01
9.150300601202403e+00 -8.0091538830028286e-01 -4.4639315790459133e-01  1.3272307446647807e-01 -2.9759543860306087e-01  1.3272307446647807e-01 -2.9759543860306087e-01 -2.4485128368901465e-01 -1.9839695906870727e-01
9.248496993987976e+00 -8.0443521298460507e-01 -4.4320667695568083e-01  1.3037652467693006e-01 -2.9547111797045394e-01  1.3037652467693003e-01 -2.9547111797045383e-01 -2.4641565021537992e-01 -1.9698074531363602e-01
9.346693386773545e+00 -8.0786836789108940e-01 -4.4004930913916784e-01  1.2808775473927370e-01 -2.9336620609277858e-01  1.2808775473927370e-01 -2.9336620609277858e-01 -2.4794149684048425e-01 -1.9557747072851905e-01
9.444889779559118e+00 -8.1121746162616681e-01 -4.3692127351930587e-01  1.2585502558255557e-01 -2.9128084901287066e-01  1.2585502558255554e-01 -2.9128084901287060e-01 -2.4942998294496291e-01 -1.9418723267524707e-01
9.543086172344688e+00 -8.1448501528646888e-01 -4.3382274272215804e-01  1.2367665647568749e-01 -2.8921516181477203e-01  1.2367665647568749e-01 -2.8921516181477203e-01 -2.5088222901620844e-01 -1.9281010787651476e-01
9.641282565130259e+00 -8.1767346538926389e-01 -4.3075384654083287e-01  1.2155102307382412e-01 -2.8716923102722192e-01  1.2155102307382412e-01 -2.8716923102722197e-01 -2.5229931795078386e-01 -1.9144615401814796e-01
9.739478957915830e+00 -8.2078516672982615e-01 -4.2771467529201351e-01  1.1947655551344934e-01 -2.8514311686134225e-01  1.1947655551344932e-01 -2.8514311686134231e-01 -2.5368229632436706e-01 -1.9009541124089482e-01
9.837675350701403e+00 -8.2382239516394817e-01 -4.2470528294041054e-01  1.1745173655736792e-01 -2.8313685529360705e-01  1.1745173655736789e-01 -2.8313685529360699e-01 -2.5503217562842140e-01 -1.8875790352907146e-01
9.935871743486974e+00 -8.2678735031438544e-01 -4.2172569000669857e-01  1.1547509979040967e-01 -2.8115046000446570e-01  1.1547509979040967e-01 -2.8115046000446570e-01 -2.5634993347306012e-01 -1.8743364000297716e-01
