! Created Sat Nov 25 14:30:50 2023
# hz S ri R 50
! 2 Port Network Data from SP1.SP block
! freq  reS11  imS11  reS21  imS21  reS12  imS12  reS22  imS22  
!     
100000000       0.725615245911212       -0.429239362379684      0.00266177246969017     -0.00194036948658518      0.00266177246969017     -0.00194036948658518        0.725615245911212       -0.429239362379684
119191919.191919       0.683109752539829       -0.466300891508316      0.00410636295998732     -0.00479055092394584      0.00410636295998732     -0.00479055092394584        0.683109752539829       -0.466300891508316
138383838.383838       0.645161026315176       -0.502811073339699       0.0052515946901087     -0.00942843637377012       0.0052515946901087     -0.00942843637377011        0.645161026315176       -0.502811073339699
157575757.575758       0.609328599008182       -0.540151654564087      0.00553467856862135      -0.0161382094901729      0.00553467856862135      -0.0161382094901729        0.609328599008182       -0.540151654564087
176767676.767677       0.573625675087123       -0.578841458598034      0.00426919959008595      -0.0251038706074109      0.00426919959008595      -0.0251038706074109        0.573625675087123       -0.578841458598034
195959595.959596       0.536386155009202       -0.618938659210208     0.000629968646911021      -0.0363815987684108     0.000629968646911021      -0.0363815987684108        0.536386155009202       -0.618938659210208
215151515.151515       0.496114970856277       -0.660191258712078     -0.00636261489942755      -0.0498450823764654     -0.00636261489942756      -0.0498450823764654        0.496114970856277       -0.660191258712078
234343434.343434       0.451381580370157       -0.702044472832629      -0.0178443733201717      -0.0650983662812561      -0.0178443733201717      -0.0650983662812561        0.451381580370157       -0.702044472832629
253535353.535354       0.400779044864326       -0.743559102201329      -0.0350744837170526      -0.0813523741595577      -0.0350744837170526      -0.0813523741595577        0.400779044864326       -0.743559102201329
272727272.727273       0.342973626759595        -0.78327317554802      -0.0593355403136974      -0.0972695680435177      -0.0593355403136974      -0.0972695680435178        0.342973626759595        -0.78327317554802
291919191.919192       0.276881987477344       -0.819046748347806      -0.0917222267756272       -0.110803442317262      -0.0917222267756272       -0.110803442317262        0.276881987477344       -0.819046748347806
311111111.111111        0.20201420866317       -0.847965917412917         -0.1327750605689       -0.119102645404494         -0.1327750605689       -0.119102645404494         0.20201420866317       -0.847965917412917
330303030.30303       0.118982255228406       -0.866439050827226        -0.18195600423203       -0.118609723605621        -0.18195600423203       -0.118609723605621        0.118982255228406       -0.866439050827226
349494949.49495      0.0300620198207544       -0.870656679220218       -0.237075447786904       -0.105524478943735       -0.237075447786904       -0.105524478943735       0.0300620198207544       -0.870656679220218
368686868.686869     -0.0604810003921377       -0.857516558991574       -0.293958966847125      -0.0767327441650286       -0.293958966847125      -0.0767327441650286      -0.0604810003921379       -0.857516558991574
387878787.878788      -0.146712370368072       -0.825845899817981       -0.346762808816845      -0.0310322246993794       -0.346762808816845      -0.0310322246993795       -0.146712370368072       -0.825845899817981
407070707.070707      -0.222228227786582       -0.777362728897065        -0.38916991753707       0.0299027811164113        -0.38916991753707       0.0299027811164112       -0.222228227786582       -0.777362728897064
426262626.262626      -0.281903716875496       -0.716681997152245       -0.416136100099605        0.101512247641405       -0.416136100099605        0.101512247641406       -0.281903716875496       -0.716681997152244
445454545.454546      -0.323318445854687       -0.650142818754967       -0.425314101030125        0.177520503853424       -0.425314101030125        0.177520503853424       -0.323318445854687       -0.650142818754967
464646464.646465      -0.347091141498961       -0.584036664351968       -0.417387515916466        0.251705708036611       -0.417387515916466        0.251705708036611       -0.347091141498961       -0.584036664351968
483838383.838384      -0.356102378625625       -0.523171810457754       -0.395293245051379        0.319333396254462       -0.395293245051379        0.319333396254462       -0.356102378625625       -0.523171810457754
503030303.030303      -0.354235564592629       -0.470312106947482       -0.362962535070156        0.377716019103175       -0.362962535070156        0.377716019103175       -0.354235564592629       -0.470312106947482
522222222.222223      -0.345301597361611       -0.426390787178129       -0.324245927616747        0.425997715170967       -0.324245927616748        0.425997715170967       -0.345301597361611       -0.426390787178129
541414141.414142      -0.332438741547012       -0.391085822608429        -0.28231358404926        0.464577790954355        -0.28231358404926        0.464577790954355       -0.332438741547012       -0.391085822608429
560606060.606061       -0.31793872003665       -0.363403101514096       -0.239481926576769        0.494526599278645       -0.239481926576769        0.494526599278645        -0.31793872003665       -0.363403101514096
579797979.79798      -0.303322490245575       -0.342104810252405       -0.197290021685636        0.517156410319928       -0.197290021685636        0.517156410319928       -0.303322490245575       -0.342104810252405
598989898.989899      -0.289510999303477       -0.325964233700826       -0.156670967818003        0.533766032644669       -0.156670967818004        0.533766032644669       -0.289510999303477       -0.325964233700826
618181818.181818      -0.277001292587975       -0.313889054986311        -0.11812863787197        0.545517080050645        -0.11812863787197        0.545517080050645       -0.277001292587975       -0.313889054986311
637373737.373738      -0.266011214396888       -0.304963351304392      -0.0818829981287424        0.553391665383528      -0.0818829981287423        0.553391665383528       -0.266011214396888       -0.304963351304392
656565656.565657      -0.256585441319812       -0.298446598373643      -0.0479767321829628        0.558193188925622      -0.0479767321829628        0.558193188925622       -0.256585441319812       -0.298446598373643
675757575.757576      -0.248667923286223       -0.293753678404467      -0.0163482369161705        0.560566208793951      -0.0163482369161705        0.560566208793951       -0.248667923286223       -0.293753678404467
694949494.949495       -0.24214900010443       -0.290429058378428       0.0131207464904692        0.561022210981148       0.0131207464904692        0.561022210981148        -0.24214900010443       -0.290429058378428
714141414.141415      -0.236894839523758       -0.288121524707477       0.0405752229160972        0.559964879404626       0.0405752229160972        0.559964879404626       -0.236894839523758       -0.288121524707477
733333333.333334      -0.232765112355364       -0.286562078793149       0.0661688401650757        0.557712249744367       0.0661688401650757        0.557712249744367       -0.232765112355364       -0.286562078793149
752525252.525253      -0.229623099081172       -0.285545681047769       0.0900533972753106        0.554515049514633       0.0900533972753107        0.554515049514633       -0.229623099081172       -0.285545681047769
771717171.717172      -0.227341056114877       -0.284916660113195        0.112373134551828        0.550571399181149        0.112373134551828        0.550571399181149       -0.227341056114877       -0.284916660113195
790909090.909091      -0.225802688428493       -0.284557276077486        0.133261956432412        0.546038378442003        0.133261956432412        0.546038378442003       -0.225802688428493       -0.284557276077486
810101010.101011      -0.224903907516641       -0.284378858938854        0.152842405638102        0.541041030549633        0.152842405638102        0.541041030549633       -0.224903907516641       -0.284378858938854
829292929.29293      -0.224552613981824       -0.284314987875801        0.171225646531301         0.53567933429494        0.171225646531301         0.53567933429494       -0.224552613981824       -0.284314987875801
848484848.484849      -0.224667960570392       -0.284316259562512         0.18851199897131        0.530033591504165         0.18851199897131        0.530033591504165       -0.224667960570392       -0.284316259562512
867676767.676768      -0.225179371458247       -0.284346281060925        0.204791743999082        0.524168591385462        0.204791743999082        0.524168591385462       -0.225179371458247       -0.284346281060925
886868686.868687       -0.22602548058298       -0.284378601007221        0.220146035766414        0.518136835536823        0.220146035766414        0.518136835536823        -0.22602548058298       -0.284378601007221
906060606.060607      -0.227153081664227       -0.284394357747811        0.234647824408984        0.511981043046073        0.234647824408984        0.511981043046073       -0.227153081664227       -0.284394357747811
925252525.252526      -0.228516139527241       -0.284380474856098        0.248362737749696         0.50573610380208        0.248362737749696         0.50573610380208       -0.228516139527241       -0.284380474856098
944444444.444445      -0.230074886365114       -0.284328274777053        0.261349895876966        0.499430608205212        0.261349895876966        0.499430608205212       -0.230074886365114       -0.284328274777054
963636363.636364      -0.231795011233296       -0.284232412300218        0.273662648171253        0.493088050827197        0.273662648171253        0.493088050827198       -0.231795011233296       -0.284232412300219
982828282.828283      -0.233646942315066       -0.284090053133507        0.285349231296293        0.486727782255545        0.285349231296293        0.486727782255545       -0.233646942315067       -0.284090053133507
1002020202.0202      -0.235605216779498       -0.283900240721868        0.296453351572824        0.480365765692581        0.296453351572824        0.480365765692581       -0.235605216779498       -0.283900240721868
1021212121.21212      -0.237647930777059       -0.283663407979405        0.307014697605603        0.474015181518981        0.307014697605603        0.474015181518981       -0.237647930777059       -0.283663407979405
1040404040.40404      -0.239756261286337       -0.283381000836953        0.317069390032985        0.467686912927262        0.317069390032985        0.467686912927262       -0.239756261286337       -0.283381000836953
1059595959.59596      -0.241914051521239       -0.283055188258076        0.326650375427832        0.461389938079218        0.326650375427832        0.461389938079218       -0.241914051521238       -0.283055188258076
1078787878.78788      -0.244107452052466       -0.282688639258273        0.335787771077542        0.455131648434762        0.335787771077543        0.455131648434762       -0.244107452052466       -0.282688639258273
1097979797.9798      -0.246324610460277       -0.282284351936132        0.344509166838947        0.448918108480884        0.344509166838947        0.448918108480884       -0.246324610460277       -0.282284351936132
1117171717.17172      -0.248555403081243       -0.281845522937881        0.352839889637212         0.44275426871589        0.352839889637212         0.44275426871589       -0.248555403081243       -0.281845522937881
1136363636.36364      -0.250791203161434       -0.281375448387651        0.360803235535756        0.436644141159133        0.360803235535756        0.436644141159133       -0.250791203161434       -0.281375448387651
1155555555.55556      -0.253024680439464       -0.280877449319541        0.368420673689664        0.430590944668265        0.368420673689664        0.430590944668265       -0.253024680439464       -0.280877449319541
1174747474.74747      -0.255249627834011       -0.280354816190231        0.375712025930155        0.424597225810585        0.375712025930155        0.424597225810584        -0.25524962783401       -0.280354816190231
1193939393.93939      -0.257460811493806       -0.279810768242326         0.38269562522104        0.418664959844481         0.38269562522104        0.418664959844481       -0.257460811493806       -0.279810768242326
1213131313.13131      -0.259653840982815       -0.279248424411581        0.389388455781358        0.412795635439788        0.389388455781357        0.412795635439788       -0.259653840982815       -0.279248424411581
1232323232.32323      -0.261825056822972       -0.278670783188368         0.39580627727884        0.406990326040821        0.395806277278839        0.406990326040821       -0.261825056822972       -0.278670783188368
1251515151.51515      -0.263971433006791       -0.278080709402525        0.401963735161812        0.401249750206403        0.401963735161812        0.401249750206403       -0.263971433006791       -0.278080709402525
1270707070.70707      -0.266090492428672       -0.277480926337382        0.407874458907074        0.395574322811992        0.407874458907074        0.395574322811992       -0.266090492428671       -0.277480926337382
1289898989.89899      -0.268180233473141       -0.276874011920716        0.413551149712556        0.389964198643204        0.413551149712556        0.389964198643204       -0.268180233473141       -0.276874011920716
1309090909.09091      -0.270239066246622       -0.276262398008847        0.419005658950756        0.384419309626911        0.419005658950756        0.384419309626911       -0.270239066246622       -0.276262398008847
1328282828.28283      -0.272265757152094       -0.275648371991304        0.424249058517068        0.378939396719891        0.424249058517068        0.378939396719891       -0.272265757152094       -0.275648371991304
1347474747.47475      -0.274259380688229       -0.275034080109893        0.429291704051837          0.3735240372935        0.429291704051837          0.3735240372935       -0.274259380688229       -0.275034080109893
1366666666.66667      -0.276219277510517       -0.274421532017418        0.434143291882307        0.368172668706583        0.434143291882307        0.368172668706583       -0.276219277510517       -0.274421532017418
1385858585.85858      -0.278145017925401       -0.273812606205083        0.438812910417316         0.36288460864045        0.438812910417316         0.36288460864045       -0.278145017925401       -0.273812606205083
1405050505.0505      -0.280036370102722       -0.273209056009775        0.443309086630641        0.357659072673618        0.443309086630641        0.357659072673618       -0.280036370102722       -0.273209056009775
1424242424.24242      -0.281893272389743       -0.272612515977424        0.447639828185915        0.352495189495498        0.447639828185915        0.352495189495498       -0.281893272389743       -0.272612515977424
1443434343.43434       -0.28371580919397        -0.27202450841012          0.4518126616849        0.347392014093955          0.4518126616849        0.347392014093955        -0.28371580919397        -0.27202450841012
1462626262.62626      -0.285504189974054       -0.271446449965392        0.455834667459781        0.342348539198776        0.455834667459781        0.342348539198776       -0.285504189974054       -0.271446449965392
1481818181.81818      -0.287258730939966       -0.270879658208334        0.459712511277629        0.337363705219411        0.459712511277629        0.337363705219411       -0.287258730939966       -0.270879658208334
1501010101.0101      -0.288979839116858       -0.270325358042679        0.463452473279859        0.332436408879167        0.463452473279859        0.332436408879167       -0.288979839116858       -0.270325358042679
1520202020.20202      -0.290667998472831       -0.269784687967046        0.467060474440441        0.327565510717893        0.467060474440441        0.327565510717893        -0.29066799847283       -0.269784687967047
1539393939.39394       -0.29232375785034       -0.269258706118385        0.470542100792794        0.322749841610036        0.470542100792794        0.322749841610036        -0.29232375785034       -0.269258706118385
1558585858.58586      -0.293947720475008       -0.268748396076999        0.473902625645955        0.317988208423877        0.473902625645955        0.317988208423877       -0.293947720475008       -0.268748396076999
1577777777.77778      -0.295540534845044       -0.268254672417247        0.477147029985186        0.313279398929954        0.477147029985186        0.313279398929954       -0.295540534845044       -0.268254672417247
1596969696.96969      -0.297102886829946       -0.267778385995472        0.480280021229961        0.308622186051747        0.480280021229962        0.308622186051747       -0.297102886829946       -0.267778385995473
1616161616.16161      -0.298635492829137       -0.267320328972513        0.483306050502984        0.304015331538967        0.483306050502984        0.304015331538967       -0.298635492829137       -0.267320328972514
1635353535.35353      -0.300139093860342       -0.266881239572531        0.486229328546929        0.299457589133014        0.486229328546929        0.299457589133014       -0.300139093860342       -0.266881239572531
1654545454.54545      -0.301614450464044       -0.266461806583204        0.489053840410833        0.294947707284956        0.489053840410833        0.294947707284956       -0.301614450464044       -0.266461806583204
1673737373.73737      -0.303062338324777       -0.266062673604772        0.491783359014999        0.290484431478519        0.491783359014999        0.290484431478519       -0.303062338324777       -0.266062673604772
1692929292.92929       -0.30448354452254       -0.265684443057187        0.494421457691869        0.286066506203801        0.494421457691869        0.286066506203801        -0.30448354452254       -0.265684443057187
1712121212.12121      -0.305878864338513       -0.265327679955823         0.49697152179021        0.281692676621621         0.49697152179021        0.281692676621621       -0.305878864338513       -0.265327679955823
1731313131.31313      -0.307249098548782       -0.264992915466996        0.499436759421017         0.27736168995341        0.499436759421017         0.27736168995341       -0.307249098548782       -0.264992915466996
1750505050.50505       -0.30859505114808       -0.264680650255034        0.501820211415652        0.273072296627158        0.501820211415652        0.273072296627158        -0.30859505114808       -0.264680650255034
1769696969.69697      -0.309917527452801       -0.264391357632822        0.504124760559719         0.26882325120621        0.504124760559719         0.26882325120621       -0.309917527452801       -0.264391357632822
1788888888.88889      -0.311217332538908       -0.264125486527766          0.5063531401599        0.264613313124405        0.506353140159899        0.264613313124405       -0.311217332538908       -0.264125486527766
1808080808.0808       -0.31249526997592       -0.263883464275004        0.508507941995453        0.260441247248171        0.508507941995453        0.260441247248171        -0.31249526997592       -0.263883464275004
1827272727.27272      -0.313752140823036       -0.263665699249445        0.510591623701066        0.256305824283711        0.510591623701066        0.256305824283711       -0.313752140823036       -0.263665699249446
