! Created Sat Nov 25 14:33:54 2023
# hz S ri R 50
! 2 Port Network Data from SP1.SP block
! freq  reS11  imS11  reS21  imS21  reS12  imS12  reS22  imS22  
!     
100000000       0.725612146675361       -0.429240658238258      0.00243244053231343     -0.00147418044258363      0.00243244053231343     -0.00147418044258363        0.795414544529504       -0.389431467901027
119191919.191919       0.683099349240438         -0.4663001579826      0.00392592009851073     -0.00387631125387989      0.00392592009851073     -0.00387631125387989        0.757716127276511       -0.429325916136126
138383838.383838       0.645137531393822       -0.502799024040775      0.00529046963938936     -0.00792327913825886      0.00529046963938936     -0.00792327913825886        0.723477889100021       -0.467627407233235
157575757.575758       0.609289510485765       -0.540108738758926      0.00602477127599411      -0.0139236326253957      0.00602477127599411      -0.0139236326253957        0.691078904273488       -0.505929736025371
176767676.767677       0.573579468390847       -0.578735932600859      0.00550751248797193      -0.0220964632111399      0.00550751248797193      -0.0220964632111399        0.659004384856011       -0.545048721274447
195959595.959596       0.536363175259724       -0.618728280905118      0.00298623388663741       -0.032550524060728      0.00298623388663741       -0.032550524060728        0.625873426175118       -0.585338462364848
215151515.151515       0.496180794798176       -0.659831187808103     -0.00243858412235235      -0.0452405145799192     -0.00243858412235236      -0.0452405145799192        0.590378674385017       -0.626839950774595
234343434.343434        0.45165058733989       -0.701504792647772      -0.0118216133722186      -0.0598944002133945      -0.0118216133722186      -0.0598944002133945        0.551217776388361       -0.669313499005979
253535353.535354       0.401422950751782       -0.742855675710654      -0.0263557183734302      -0.0759068851172772      -0.0263557183734302      -0.0759068851172772        0.507053198391478       -0.712188326113808
272727272.727273       0.344214940395405       -0.782513804786502      -0.0473032158345994      -0.0921994990001515      -0.0473032158345994      -0.0921994990001515        0.456529585363494       -0.754450196463342
291919191.919192        0.27895660932348       -0.818488099027921      -0.0758369276872688       -0.107063499951586      -0.0758369276872688       -0.107063499951586        0.398385209695737       -0.794491664372995
311111111.111111       0.205084953699004       -0.848062130024474       -0.112747451891302       -0.118034902266235       -0.112747451891302       -0.118034902266235        0.331700671133582        -0.82997479275892
330303030.30303       0.122995982907567       -0.867840614466575       -0.157994544661525       -0.121902905028551       -0.157994544661525       -0.121902905028551        0.256312035594221       -0.857804294689492
349494949.49495      0.0345805096975926        -0.87410101343408       -0.210158782053964       -0.115002914296473       -0.210158782053964       -0.115002914296473         0.17334569020053       -0.874361214231082
368686868.686869     -0.0563836729247569       -0.863573156905076       -0.265998312537979      -0.0939286087831457       -0.265998312537979      -0.0939286087831457       0.0856899510751439       -0.876142498266432
387878787.878788      -0.144352406419593       -0.834571931513178       -0.320466809773946      -0.0566212009791786       -0.320466809773946      -0.0566212009791787     -0.00193928939399868       -0.860795966909851
407070707.070707      -0.222948819358755        -0.78805516877443       -0.367511993707561     -0.00345316478875018       -0.367511993707561      -0.0034531647887502      -0.0836739506994894       -0.828212901963423
426262626.262626       -0.28657454268368        -0.72794015849775       -0.401579310883438       0.0623383253432218       -0.401579310883438       0.0623383253432218       -0.153890940562674       -0.781059356324695
445454545.454546      -0.331985592345456       -0.660274570905138        -0.41917535212429        0.135310138109741        -0.41917535212429        0.135310138109742       -0.208753469175306       -0.724274054040079
464646464.646465      -0.358987473159974       -0.591585768293008       -0.419660861884068        0.209324375609599       -0.419660861884068        0.209324375609599       -0.247088126012703       -0.663693826549115
483838383.838384      -0.369968701076448       -0.527276602244942       -0.404936133567505        0.279109376578011       -0.404936133567505        0.279109376578012       -0.270212488748796        -0.60454245457709
503030303.030303      -0.368726147428995       -0.470772725048722        -0.37839280701226        0.341163643668206        -0.37839280701226        0.341163643668206       -0.281011891807426        -0.55048516474827
522222222.222223      -0.359280496553534       -0.423519698428153       -0.343787915313089        0.393852868406142       -0.343787915313089        0.393852868406142       -0.282876868667166        -0.50344416948633
541414141.414142      -0.345108004233481       -0.385485544600627       -0.304473093429345        0.436993012909724       -0.304473093429345        0.436993012909725       -0.278936563875886       -0.463931673982209
560606060.606061      -0.328837627446249        -0.35577385738213       -0.263057427179048        0.471290889059043       -0.263057427179048        0.471290889059043       -0.271692767956104       -0.431553542113433
579797979.79798      -0.312262466345785       -0.333119059376724       -0.221378728309949        0.497871569485212       -0.221378728309949        0.497871569485212       -0.262954090759236       -0.405455467899076
598989898.989899      -0.296494872001197       -0.316203088703237       -0.180625869691342        0.517964114511446       -0.180625869691342        0.517964114511447       -0.253926468564116       -0.384630972070701
618181818.181818      -0.282151887302478       -0.303821192353926       -0.141502174463424        0.532728435641965       -0.141502174463424        0.532728435641965       -0.245354059919675       -0.368098659965904
637373737.373738      -0.269517392841879       -0.294947829397102       -0.104374737184667        0.543179120303003       -0.104374737184667        0.543179120303003       -0.237654578670365       -0.354986273557715
656565656.565657      -0.258665142252086       -0.288746586995344         -0.0693910818551        0.550165740931558      -0.0693910818551001        0.550165740931558       -0.231028132785647       -0.344558503970865
675757575.757576      -0.249544694887335       -0.284553488644504       -0.036562682935254        0.554381541307171      -0.0365626829352539        0.554381541307171       -0.225536860447885       -0.336215234647208
694949494.949495      -0.242038158606151       -0.281850628674387     -0.00582149712229757          0.5563837493828     -0.00582149712229768          0.5563837493828       -0.221159863852601       -0.329476624347117
714141414.141415      -0.235996046194917       -0.280238760191703       0.0229433017525556         0.55661663293139       0.0229433017525557         0.55661663293139       -0.217829566950601       -0.323964045323836
733333333.333334      -0.231259016476864       -0.279412624801544       0.0498622567127362        0.555433139579811       0.0498622567127364        0.555433139579811       -0.215454990979798       -0.319381314858079
752525252.525253      -0.227670438592828       -0.279140264077335       0.0750716375032949        0.553113534667741       0.0750716375032948        0.553113534667741       -0.213936188409073       -0.315498090427573
771717171.717172      -0.225083165863312       -0.279246340896702       0.0987053099038708        0.549880728896145       0.0987053099038708        0.549880728896145       -0.213172869225382       -0.312135973208599
790909090.909091      -0.223362753968161       -0.279599002803444        0.120890302042374        0.545912553249343        0.120890302042374        0.545912553249343       -0.213069296214392       -0.309157242873565
810101010.101011       -0.22238855993903       -0.280099678471663          0.1417446521192        0.541351438196437          0.1417446521192        0.541351438196437       -0.213536831281789       -0.306455897594173
829292929.29293      -0.222053626885679       -0.280675217103403         0.16137662837298        0.536311980122981         0.16137662837298        0.536311980122981       -0.214495035016537       -0.303950608456216
848484848.484849      -0.222263914292755       -0.281271860163077         0.17988474629993        0.530886830926392         0.17988474629993        0.530886830926392       -0.215871899861712       -0.301579215976636
867676767.676768      -0.222937213606784       -0.281850628282264        0.197358224747249        0.525151276341345        0.197358224747249        0.525151276341345       -0.217603585433948       -0.299294446506231
886868686.868687       -0.22400195030907       -0.282383793321146        0.213877661122219        0.519166797493359        0.213877661122219        0.519166797493359       -0.219633886887318       -0.297060583276973
906060606.060607      -0.225395987533916       -0.282852179432246        0.229515793770645        0.512983847443003        0.229515793770645        0.512983847443003       -0.221913578620967       -0.294850879933686
925252525.252526      -0.227065493405232       -0.283243096519193        0.244338274675942        0.506644022599392        0.244338274675942        0.506644022599392       -0.224399719064793       -0.292645549725266
944444444.444445      -0.228963902297031       -0.283548756141256        0.258404409838023        0.500181767498773        0.258404409838023        0.500181767498773       -0.227054966459898       -0.290430200505697
963636363.636364      -0.231050981314042       -0.283765055859491        0.271767845646443        0.493625719134203        0.271767845646443        0.493625719134203       -0.229846933092592       -0.288194615057197
982828282.828283      -0.233292002464012       -0.283890645436822         0.28447719216121         0.48699977211678         0.28447719216121        0.486999772116781        -0.23274759154414       -0.285931799194111
1002020202.0202      -0.235657015123272          -0.283926209099        0.296576581579854        0.480323926893677        0.296576581579854        0.480323926893677       -0.235732738081621       -0.283637237868122
1021212121.21212      -0.238120210521431       -0.283873913793221        0.308106164284832        0.473614968726756        0.308106164284832        0.473614968726756       -0.238781513340502       -0.281308313169749
1040404040.40404      -0.240659368868603        -0.28373698527131        0.319102546986917        0.466887014087092        0.319102546986917        0.466887014087092       -0.241875977652866       -0.278943848620432
1059595959.59596      -0.243255379663251        -0.28351938281797        0.329599178399672        0.460151952714191        0.329599178399671        0.460151952714191       -0.245000736933889       -0.276543752204461
1078787878.78788       -0.24589182618715         -0.2832255502581        0.339626688093854        0.453419807184683        0.339626688093854        0.453419807184684       -0.248142614427187       -0.274108736772692
1097979797.9798      -0.248554625935267       -0.282860226050672        0.349213183997562        0.446699026946776        0.349213183997562        0.446699026946776       -0.251290363492671       -0.271640101202272
1117171717.17172      -0.251231719576255       -0.282428299215374        0.358384513618011        0.439996730035137        0.358384513618011        0.439996730035137       -0.254434416786883       -0.269139559356727
1136363636.36364      -0.253912801897749       -0.281934700845834        0.367164493579192        0.433318902808298        0.367164493579192        0.433318902808298       -0.257566667503302       -0.266609106716806
1155555555.55556      -0.256589089007647       -0.281384323266932        0.375575111563868        0.426670565837614        0.375575111563869        0.426670565837614       -0.260680278727013       -0.264050916740332
1174747474.74747      -0.259253116811992       -0.280781960663966        0.383636704256926        0.420055912365705        0.383636704256926        0.420055912365705       -0.263769517365172       -0.261467260708161
1193939393.93939      -0.261898566461845       -0.280132266376078        0.391368114430039        0.413478424424194        0.391368114430039        0.413478424424194       -0.266829609513339       -0.258860446136343
1213131313.13131      -0.264520113054351       -0.279439723101647        0.398786829894152        0.406940970665596        0.398786829894152        0.406940970665596       -0.269856614492149         -0.2562327698681
1232323232.32323      -0.267113294390956       -0.278708623081958        0.405909106678932        0.400445889154545        0.405909106678932        0.400445889154545       -0.272847315131328        -0.25358648276888
1251515151.51515      -0.269674397044519       -0.277943055966224        0.412750078476074        0.393995057727375        0.412750078476074        0.393995057727375       -0.275799122186137       -0.250923763584049
1270707070.70707      -0.272200357374281       -0.277146902557886        0.419323854102937        0.387589954027296        0.419323854102937        0.387589954027296       -0.278709991044854       -0.248246700020121
1289898989.89899      -0.274688675460414       -0.276323833030611        0.425643604500588         0.38123170692485        0.425643604500588         0.38123170692485       -0.281578349126944       -0.245557275506569
1309090909.09091      -0.277137340215388       -0.275477308507041        0.431721640571534        0.374921140717176        0.431721640571534        0.374921140717176       -0.284403032582483       -0.242857360409065
1328282828.28283      -0.279544764173884       -0.274610585132675        0.437569482983132        0.368658813246929        0.437569482983132        0.368658813246929       -0.287183231087326       -0.240148706714181
1347474747.47475      -0.281909726672283       -0.273726719965623        0.443197924908965        0.362445048879126        0.443197924908965        0.362445048879126       -0.289918439688319       -0.237432945403856
1366666666.66667      -0.284231324307882       -0.272828578151533        0.448617088548783        0.356279967110926        0.448617088548783        0.356279967110926       -0.292608416791439       -0.234711585896062
1385858585.85858      -0.286508927721258       -0.271918840970188        0.453836476154865        0.350163507457308        0.453836476154865        0.350163507457308       -0.295253147505818       -0.231986017054433
1405050505.0505      -0.288742143876466        -0.27100001443297        0.458865016196074        0.344095451148354        0.458865016196074        0.344095451148354       -0.297852811660467       -0.229257509370623
1424242424.24242       -0.29093078312626       -0.270074438183624        0.463711105208122        0.338075440086345        0.463711105208122        0.338075440086345       -0.300407755900359       -0.226527218004199
1443434343.43434      -0.293074830445941       -0.269144294512697        0.468382645807528        0.332102993439203        0.468382645807528        0.332102993439203       -0.302918469346297       -0.223796186429731
1462626262.62626      -0.295174420302252       -0.268211617341853        0.472887081285806        0.326177522187897        0.472887081285806        0.326177522187897       -0.305385562370179       -0.221065350492922
1481818181.81818      -0.297229814694886       -0.267278301070429        0.477231427147934        0.320298341896728        0.477231427147935        0.320298341896728       -0.307809748095503       -0.218335542719405
1501010101.0101       -0.29924138396935       -0.266346109205205        0.481422299914006        0.314464683935067        0.481422299914006        0.314464683935067       -0.310191826283304       -0.215607496753481
1520202020.20202      -0.301209590052695       -0.265416682716794        0.485465943463955        0.308675705345532        0.485465943463955        0.308675705345531       -0.312532669307405       -0.212881851831024
1539393939.39394      -0.303134971809007       -0.264491548083751        0.489368253171564        0.302930497525486        0.489368253171564        0.302930497525486       -0.314833209960676       -0.210159157212421
1558585858.58586      -0.305018132250841       -0.263572124999312        0.493134798044751         0.29722809386522        0.493134798044751         0.29722809386522       -0.317094430866855       -0.207439876518728
1577777777.77778        -0.3068597273767       -0.262659733726389        0.496770841063817        0.291567476466301        0.496770841063816        0.291567476466301       -0.319317355301016       -0.204724391928121
1596969696.96969      -0.308660456433985        -0.26175560209479        0.500281357887278        0.285947582046823        0.500281357887278        0.285947582046823       -0.321503039246525        -0.20201300820071
1616161616.16161      -0.310421053432307       -0.260860872140998        0.503671054075722        0.280367307126065        0.503671054075722        0.280367307126065       -0.323652564537926       -0.199305956508596
1635353535.35353      -0.312142279754111       -0.259976606395629         0.50694438096732        0.274825512568909         0.50694438096732        0.274825512568909       -0.325767032957951       -0.196603398054979
1654545454.54545      -0.313824917728728       -0.259103793827355        0.510105550323961        0.269321027560051        0.510105550323961        0.269321027560051        -0.32784756117323       -0.193905427471547
1673737373.73737      -0.315469765052624       -0.258243355454638        0.513158547854069        0.263852653069124        0.513158547854069        0.263852653069124       -0.329895276407543       -0.191212075987635
1692929292.92929       -0.31707762995316        -0.25739614963855        0.516107145706811        0.258419164860219        0.516107145706811        0.258419164860219       -0.331911312763909       -0.188523314367888
1712121212.12121      -0.318649327005774       -0.256562977071184        0.518954914022419        0.253019316092685        0.518954914022419        0.253019316092685       -0.333896808117724       -0.185839055617625
1731313131.31313       -0.32018567352557       -0.255744585474954        0.521705231614487        0.247651839554363        0.521705231614487        0.247651839554363       -0.335852901512661       -0.183159157456939
1750505050.50505      -0.321687486463909       -0.254941674028548        0.524361295852266        0.242315449563456        0.524361295852266        0.242315449563456       -0.337780730999391       -0.180483424565836
1769696969.69697      -0.323155579749044       -0.254154897535408        0.526926131804021        0.237008843570884        0.526926131804021        0.237008843570884        -0.33968143186448       -0.177811610603635
1788888888.88889      -0.324590762017189       -0.253384870350593        0.529402600696289        0.231730703491199        0.529402600696289        0.231730703491199       -0.341556135203236       -0.175143420006363
1808080808.0808      -0.325993834686902       -0.252632170081618         0.53179340773833        0.226479696786807        0.531793407738331        0.226479696786807        -0.34340596679588       -0.172478509566122
1827272727.27272      -0.327365590335315       -0.251897341078589        0.534101109356073        0.221254477327315        0.534101109356073        0.221254477327316       -0.345232046251337       -0.169816489796487
