! Created Sat Nov 25 14:37:30 2023
# hz S ri R 50
! 2 Port Network Data from SP1.SP block
! freq  reS11  imS11  reS21  imS21  reS12  imS12  reS22  imS22  
!     
100000000       0.733366911725108       -0.679832332486599    -5.86004228972991e-05     0.000319139159029377    -5.86004228972991e-05     0.000319139159029377        0.795450532695708       -0.389420652657138
119191919.191919       0.630450381199938       -0.776226212127749     6.24030897874842e-06     0.000861449965103882     6.24030897874862e-06     0.000861449965103882        0.757836377463399       -0.429328340725667
138383838.383838       0.515333973625915       -0.856976619951054     0.000356113193144437      0.00194752350958262     0.000356113193144438      0.00194752350958262        0.723787029863546       -0.467720460268769
157575757.575758       0.389740622215262       -0.920881501250747      0.00138633590273968      0.00387383031799296      0.00138633590273968      0.00387383031799296        0.691739839534854       -0.506324005304705
176767676.767677       0.254941062551638       -0.966823239698709      0.00381474792454603      0.00698844889957733      0.00381474792454603      0.00698844889957733         0.66022134709774       -0.546221899947449
195959595.959596        0.11148627417929       -0.993375191373294      0.00890255483322699        0.011642996274603        0.008902554833227        0.011642996274603        0.627802581236857       -0.588270318817043
215151515.151515     -0.0411412031740626       -0.998034258428598       0.0188726567271495       0.0180482832195355       0.0188726567271495       0.0180482832195355        0.592849254923116       -0.633415307010693
234343434.343434      -0.204954144849945       -0.975538714373471       0.0377582014713266       0.0258193030511377       0.0377582014713266       0.0258193030511377         0.55295776333426       -0.682984059209558
253535353.535354      -0.383541921222267       -0.913694669486958        0.073192501269871       0.0324154410653586        0.073192501269871       0.0324154410653586        0.503562513116118       -0.738903208558721
272727272.727273      -0.578392142960729       -0.782006932130507        0.139832542228739       0.0271968719335172        0.139832542228739       0.0271968719335171        0.434050089824822       -0.802897748858431
291919191.919192      -0.757481656786606       -0.503695673166936        0.259186869502517      -0.0327877548051414        0.259186869502517      -0.0327877548051414        0.317462737768713       -0.867088429719277
311111111.111111       -0.67919788286458      0.00862406469763172        0.376390330088625       -0.284279520789904        0.376390330088625       -0.284279520789904        0.116341400538499       -0.854697952791806
330303030.30303     -0.0166673938898749        0.158807397969937        0.111497084669444       -0.636704084356491        0.111497084669444       -0.636704084356491       0.0159861216689701       -0.637710122303723
349494949.49495       0.221264853104987       -0.318153593489189       -0.258271911910792       -0.556475967376621       -0.258271911910792       -0.556475967376621        0.137480772011844       -0.539998362711241
368686868.686869        0.07041252681666       -0.586744666558046       -0.388555233122234       -0.381474237755534       -0.388555233122234       -0.381474237755534        0.203603769101778       -0.577714710442839
387878787.878788      -0.102407212317219       -0.670453434600121       -0.429943442094613         -0.2595730339791       -0.429943442094614         -0.2595730339791        0.209529597908332       -0.628802512580124
407070707.070707      -0.240720900925848       -0.675886794470743       -0.448766064979931       -0.174024172302458       -0.448766064979931       -0.174024172302458        0.188388411315376       -0.670796605913376
426262626.262626      -0.347446911546119       -0.646660114984703       -0.461525546070363       -0.107134664046435       -0.461525546070363       -0.107134664046435        0.154594145065024       -0.702942701556031
445454545.454546      -0.429636788937302        -0.60043785412469       -0.472079411195676      -0.0495933471331394       -0.472079411195676      -0.0495933471331394         0.11420458144777       -0.726727074718275
464646464.646465      -0.492475941073525       -0.545414805591989       -0.481023240555537      0.00332560955890562       -0.481023240555537      0.00332560955890568       0.0701539483856266       -0.743354465093288
483838383.838384       -0.53948114135186       -0.486004518037974       -0.488070961802094       0.0540475001346976       -0.488070961802094       0.0540475001346977       0.0241302472188965       -0.753633710976378
503030303.030303      -0.573128981868953       -0.424928729769265       -0.492731164759952        0.103783764073525       -0.492731164759953        0.103783764073525      -0.0227228862676723       -0.758125393201993
522222222.222223       -0.59529102466277       -0.364056438645137       -0.494521924131169        0.153060734663832       -0.494521924131169        0.153060734663833      -0.0695255073321202       -0.757265726844241
541414141.414142      -0.607492895573188       -0.304767039913823       -0.493046031024929        0.201996281970576       -0.493046031024929        0.201996281970576       -0.115545237573947       -0.751445729513525
560606060.606061      -0.611061674361731        -0.24811643942507       -0.488018795874096        0.250458158515806       -0.488018795874096        0.250458158515806       -0.160150782484647       -0.741057092347197
579797979.79798      -0.607206118467317       -0.194916571988229       -0.479276795004151         0.29816361721786       -0.479276795004151         0.29816361721786       -0.202796308674948       -0.726515554412054
598989898.989899       -0.59705652982312       -0.145776017532045       -0.466776778010573        0.344747606897894       -0.466776778010573        0.344747606897894       -0.243019157900761       -0.708269128957394
618181818.181818      -0.581680437720342       -0.101123820559291       -0.450588056549396        0.389812301881999       -0.450588056549396        0.389812301881999       -0.280442248477805       -0.686796166442756
637373737.373738      -0.562084275719485       -0.061227176708375       -0.430880019089266        0.432963977097426       -0.430880019089266        0.432963977097426       -0.314776666037482       -0.662596883876842
656565656.565657      -0.539207750681032      -0.0262080413750635       -0.407906087708654        0.473840128268704       -0.407906087708654        0.473840128268704       -0.345822159769183       -0.636181183972994
675757575.757576      -0.513915410793628      0.00393925941623635       -0.381985458808875        0.512128393044337       -0.381985458808875        0.512128393044337       -0.373464592046379       -0.608055014940462
694949494.949495      -0.486988393438175        0.029328978321095       -0.353483993867677        0.547578351274341       -0.353483993867677        0.547578351274341       -0.397670245186891       -0.578707022180945
714141414.141415      -0.459118184942817       0.0501638980552211       -0.322795537994207        0.580007200680313       -0.322795537994207        0.580007200680313       -0.418477430182911       -0.548596760641654
733333333.333334      -0.430903334814817       0.0667151244509443       -0.290324736700008           0.609300361479       -0.290324736700008           0.609300361479       -0.435986143250921       -0.518145272596783
752525252.525253      -0.402849393952916       0.0793026444662267       -0.256472133279169        0.635408124180165       -0.256472133279169        0.635408124180165       -0.450346627739581       -0.487728415570123
771717171.717172      -0.375371870612654       0.0882774611443163       -0.221622011979191        0.658339457044092       -0.221622011979191        0.658339457044091       -0.461747669091779       -0.457672976338771
790909090.909091      -0.348801700354415       0.0940059029015598       -0.186133152482067        0.678154018255536       -0.186133152482067        0.678154018255537        -0.47040532706593        -0.42825534705915
810101010.101011      -0.323392579854555       0.0968564557284663       -0.150332412096144         0.69495328414602       -0.150332412096144         0.69495328414602       -0.476552636729051       -0.399702372504648
829292929.29293      -0.299329485544132       0.0971892317427515       -0.114510870281238        0.708871532229896       -0.114510870281238        0.708871532229896       -0.480430624544561       -0.372193895011657
848484848.484849      -0.276737750602777       0.0953479942401687      -0.0789221581992233        0.720067231780286      -0.0789221581992233        0.720067231780286       -0.482280814562189       -0.345866509764421
867676767.676768      -0.255692174498212       0.0916545199195271      -0.0437825462331386        0.728715216418018      -0.0437825462331385        0.728715216418018       -0.482339257988738         -0.3208180778861
886868686.868687      -0.236225760553806       0.0864049934679917     -0.00927236158888081          0.7349998572562     -0.00927236158888096          0.7349998572562       -0.480832013789544       -0.297112609288957
906060606.060607      -0.218337798852503       0.0798680910401445       0.0244616587621557        0.739109329143497       0.0244616587621556        0.739109329143497       -0.477971938150868       -0.274785205176368
925252525.252526      -0.202001121318216       0.0722844067706264       0.0573034213298824        0.741230968347229       0.0573034213298824        0.741230968347229       -0.473956602096297       -0.253846829377899
944444444.444445      -0.187168446381401       0.0638668991340358       0.0891642151512841        0.741547655468941       0.0891642151512841        0.741547655468941       -0.468967142749647       -0.234288750394605
963636363.636364      -0.173777800161826       0.0548020716569793        0.119979353901712        0.740235118044435        0.119979353901712        0.740235118044435       -0.463167857741531       -0.216086557787175
982828282.828283      -0.161757050553161       0.0452516471391409        0.149704880931548        0.737460027786999        0.149704880931549        0.737460027786999       -0.456706367771374       -0.199203705744407
1002020202.0202      -0.151027622642578       0.0353545402991373        0.178314447542192        0.733378762474982        0.178314447542192        0.733378762474982       -0.449714194212107       -0.183594573568147
1021212121.21212      -0.141507481926528       0.0252289767932868         0.20579643423993        0.728136707368229         0.20579643423993        0.728136707368229       -0.442307623018816       -0.169207058739091
1040404040.40404      -0.133113479220296       0.0149746446762661        0.232151352990966        0.721867981941077        0.232151352990966        0.721867981941077       -0.434588750415349       -0.155984735031363
1059595959.59596      -0.125763151094614      0.00467479662428225         0.25738954481038        0.714695491739624         0.25738954481038        0.714695491739624       -0.426646628227325       -0.143868617779159
1078787878.78788        -0.1193760646794      -0.0056017524973408        0.281529170164217        0.706731220242023        0.281529170164217        0.706731220242023       -0.418558446418876       -0.132798582691724
1097979797.9798      -0.113874787763869      -0.0157987674742962        0.304594478360972        0.698076690354332        0.304594478360972        0.698076690354332       -0.410390707033405       -0.122714485134375
1117171717.17172      -0.109185555780946      -0.0258708930026525        0.326614335128733        0.688823538784257        0.326614335128733        0.688823538784257       -0.402200357355151       -0.113557024816263
1136363636.36364      -0.105238697532679      -0.0357821197867464        0.347620983832775        0.679054158571046        0.347620983832775        0.679054158571046       -0.394035860932179       -0.105268397331436
1155555555.55556      -0.101968872075049      -0.0455044156746922        0.367649014378388        0.668842375355371        0.367649014378388        0.668842375355371       -0.385938193475367      -0.0977927697115932
1174747474.74747     -0.0993151604469903      -0.0550165154685735        0.386734514038118        0.658254131568851        0.386734514038119        0.658254131568851       -0.377941756952808       -0.091076612575298
1193939393.93939     -0.0972210481146748      -0.0643028595220288         0.40491437568003        0.647348159733814         0.40491437568003        0.647348159733814       -0.370075209808953      -0.0850689169386641
1213131313.13131     -0.0956343271883177      -0.0733526692330558        0.422225740734258        0.636176631668908        0.422225740734258        0.636176631668908       -0.362362214494559       -0.079721319498034
1232323232.32323     -0.0945069416465594      -0.0821591466355389        0.438705556415872        0.624785774793444        0.438705556415872        0.624785774793444       -0.354822105695326      -0.0749881563242972
1251515151.51515     -0.0937947939111416      -0.0907187851599164        0.454390229011704        0.613216450109294        0.454390229011704        0.613216450109294       -0.347470484044178      -0.0708264614746458
1270707070.70707     -0.0934575270617667      -0.0990307790185768        0.469315357296179        0.601504688995721        0.469315357296179        0.601504688995721       -0.340319740899442      -0.0671959240407105
1289898989.89899     -0.0934582936650494       -0.107096519385419        0.483515532277932        0.589682187841046        0.483515532277932        0.589682187841046       -0.333379520131943      -0.0640588145947476
1309090909.09091     -0.0937635195089209       -0.114919166442533         0.49702419144397        0.577776760894292        0.497024191443971        0.577776760894292        -0.32665712291634      -0.0613798898346199
1328282828.28283     -0.0943426683861841       -0.122503287361091        0.509873517437226        0.565812752665864        0.509873517437227        0.565812752665863       -0.320157861363712      -0.0591262824225923
1347474747.47475     -0.0951680123690747       -0.129854551299413        0.522094372669849        0.553811411834755        0.522094372669849        0.553811411834755        -0.31388536653775      -0.0572673815186343
1366666666.66667     -0.0962144106816333       -0.136979473493062        0.533716262743911        0.541791229007594        0.533716262743911        0.541791229007594       -0.307841856020191      -0.0557747082831352
1385858585.85858     -0.0974590992405923       -0.143885201450752        0.544767322735371        0.529768240883799        0.544767322735371        0.529768240883799       -0.302028365772285      -0.0546217896264387
1405050505.0505     -0.0988814921406241       -0.150579337138948        0.555274321412236        0.517756303459499        0.555274321412236        0.517756303459499       -0.296444950605764      -0.0537840326771093
1424242424.24242      -0.100462995757981       -0.157069789829275        0.565262679321691        0.505767336888236        0.565262679321691        0.505767336888236       -0.291090857148362      -0.0532386017952886
1443434343.43434      -0.102186835698028       -0.163364654993824        0.574756497411206        0.493811544537684        0.574756497411207        0.493811544537684       -0.285964672777874       -0.052964299444005
1462626262.62626      -0.104037896484255       -0.169472115265746        0.583778593462654        0.481897608660545        0.583778593462654        0.481897608660545       -0.281064453612896      -0.0529414518261826
1481818181.81818       -0.10600257365271       -0.175400360040335        0.592350544132105        0.470032864950697        0.592350544132105        0.470032864950697        -0.27638783429199      -0.0531517998781899
1501010101.0101      -0.108068637755059       -0.181157520780489        0.600492730815756        0.458223458094615        0.600492730815757        0.458223458094615       -0.271932121947946      -0.0535783959653804
1520202020.20202      -0.110225109668686       -0.186751619516175        0.608224387917168         0.44647448026181        0.608224387917167         0.44647448026181       -0.267694376490201      -0.0542055064371212
1539393939.39394      -0.112462146549935       -0.192190528396803         0.61556365238398        0.434790094312505        0.615563652383979        0.434790094312505       -0.263671479045355      -0.0550185200569545
1558585858.58586      -0.114770937735895       -0.197481938474306        0.622527613623365        0.423173643340368        0.622527613623365        0.423173643340368       -0.259860190171482      -0.0560038622182253
1577777777.77778      -0.117143609893061        -0.20263333616931        0.629132363102973        0.411627748015463        0.629132363102972        0.411627748015463       -0.256257199254369      -0.0571489147791646
1596969696.96969      -0.119573140720822       -0.207651986108507        0.635393043105381         0.40015439304935        0.635393043105381         0.40015439304935       -0.252859166310832      -0.0584419412977813
1616161616.16161      -0.122053280539336       -0.212544919223166         0.64132389423508        0.388755003971422         0.64132389423508        0.388755003971422       -0.249662757263385      -0.0598720174109713
1635353535.35353      -0.124578481120986       -0.217318925171211         0.64693830138298        0.377430515283283        0.646938301382981        0.377430515283283       -0.246664673609638      -0.0614289660799588
1654545454.54545      -0.127143831159236       -0.221980548292372        0.652248837938734        0.366181430946367        0.652248837938734        0.366181430946367       -0.243861677286564      -0.0631032974123727
1673737373.73737      -0.129744997806317         -0.2265360864312        0.657267308109358        0.355007878056535        0.657267308109358        0.355007878056535       -0.241250611422395      -0.0648861527672602
1692929292.92929      -0.132378173749993       -0.230991592069158        0.662004787256856        0.343909654467726        0.662004787256855        0.343909654467726       -0.238828417575271      -0.0667692528512303
1712121212.12121      -0.135040029338497        -0.23535287529743        0.666471660210212        0.332886271044107        0.666471660210212        0.332886271044107       -0.236592149976481      -0.0687448495200363
1731313131.31313       -0.13772766930088       -0.239625508238661        0.670677657540459        0.321936989146101        0.670677657540459        0.321936989146101       -0.234538987225465      -0.0708056810089622
1750505050.50505      -0.140438593646673       -0.243814830590773         0.67463188981315        0.311060853889208        0.674631889813149        0.311060853889208        -0.23266624182239      -0.0729449303265148
1769696969.69697      -0.143170662363799       -0.247925956020798        0.678342879852036        0.300256723655294        0.678342879852036        0.300256723655294        -0.23097136787106       -0.075156186558229
1788888888.88889      -0.145922063566517       -0.251963779183048        0.681818593062164        0.289523296283129        0.681818593062164        0.289523296283129       -0.229451967238755      -0.0774334088404259
1808080808.0808       -0.14869128477617        -0.25593298317493        0.685066465870964        0.278859132317905        0.685066465870964        0.278859132317905       -0.228105794419801        -0.07977089277696
1827272727.27272      -0.151477087046044       -0.259838047276714        0.688093432353053        0.268262675657601        0.688093432353054        0.268262675657601       -0.226930760315004      -0.0821632390851996
