! Created Sat Nov 25 14:40:42 2023
# hz S ri R 50
! 2 Port Network Data from SP1.SP block
! freq  reS11  imS11  reS21  imS21  reS12  imS12  reS22  imS22  
!     
100000000       0.725609735456155       -0.429236776890674    -4.40163483879338e-05    -9.49462317743331e-06    -4.40163483879338e-05    -9.49462317743331e-06        0.796033182487584       -0.389741758277258
119191919.191919       0.683097885105092       -0.466282519413034    -0.000136562630913541     1.63230677324596e-05    -0.000136562630913541     1.63230677324596e-05        0.758766354117485       -0.430211151068469
138383838.383838       0.645155137750352       -0.502747610035436    -0.000319603015237029     0.000137079761883125    -0.000319603015237029     0.000137079761883125        0.724981055442714       -0.469530399647643
157575757.575758       0.609380867155513       -0.539999956775691    -0.000610278644286487     0.000471312045020123    -0.000610278644286487     0.000471312045020123        0.692951791418222       -0.509412838275799
176767676.767677       0.573863881374481       -0.578567308922311     -0.00098452756468119      0.00120378011448392    -0.000984527564681191      0.00120378011448392        0.661036762931603       -0.550806521165764
195959595.959596        0.53705225040834       -0.618574364862003     -0.00133859928679319      0.00259909800401806     -0.00133859928679319      0.00259909800401806        0.627693489158157       -0.594238487761555
215151515.151515       0.497588294481651       -0.659946922197935     -0.00142825776892118      0.00501316530345575     -0.00142825776892118      0.00501316530345575        0.591380133930801       -0.640001998727415
234343434.343434       0.454147714041279       -0.702493963929945    -0.000770169465935278        0.008894651858832    -0.000770169465935278        0.008894651858832        0.550400764601953       -0.688235405424465
253535353.535354       0.405266795535821       -0.745913501025212      0.00152034252964233        0.014756296619353      0.00152034252964233        0.014756296619353        0.502689615872739       -0.738909236054858
272727272.727273       0.349117431998114       -0.789714044857124      0.00699724499700131       0.0230646740850797      0.00699724499700131       0.0230646740850797        0.445491714584459       -0.791683760401928
291919191.919192       0.283172658662335        -0.83296564649574       0.0183169169806389       0.0339165652423503       0.0183169169806389       0.0339165652423503        0.374871851188317       -0.845490213663492
311111111.111111       0.203722092244828       -0.873619854562934       0.0398689997592838       0.0461612378414208       0.0398689997592838       0.0461612378414208        0.285021247059232       -0.897427078435125
330303030.30303       0.105440663924168       -0.906726712718085       0.0783187409947601       0.0551299913330076       0.0783187409947601       0.0551299913330075        0.167740282327963       -0.939955113557255
349494949.49495     -0.0174562372236849       -0.920239066166161        0.141100103758339       0.0473933249242552        0.141100103758339       0.0473933249242553       0.0145722391352745       -0.954513083313799
368686868.686869      -0.162265244202112       -0.888778111174389        0.225160810832699      -0.0067781975613226        0.225160810832699     -0.00677819756132255       -0.168909139989943       -0.902668608111207
387878787.878788      -0.292211829182574       -0.782711570000477        0.285581205516516       -0.141428188845895        0.285581205516516       -0.141428188845895        -0.32457812226622        -0.74221414350749
407070707.070707      -0.336847404804697       -0.627910357898075        0.238103777496919       -0.321038628219146        0.238103777496919       -0.321038628219145        -0.34748347335048       -0.518820972034569
426262626.262626      -0.294203336165593       -0.514999607142155       0.0859519507806324       -0.432800189551186       0.0859519507806323       -0.432800189551186       -0.243393010220696       -0.371366900450349
445454545.454546      -0.237812245183507       -0.472450235921524      -0.0760975113298453       -0.444282404503178      -0.0760975113298453       -0.444282404503178       -0.128488862076373       -0.336506470006308
464646464.646465      -0.205757128345715       -0.465947466065932        -0.19950618227152       -0.400378009609837        -0.19950618227152       -0.400378009609837      -0.0588935825733539        -0.35735258745784
483838383.838384      -0.196553032294909       -0.467605931031618       -0.284910447237942         -0.3373017509357       -0.284910447237942         -0.3373017509357      -0.0302725815808791       -0.390168223972861
503030303.030303      -0.200495210007733       -0.466642181971579       -0.343098463438686       -0.270296394731994       -0.343098463438686       -0.270296394731994      -0.0268501962220085        -0.41813609465362
522222222.222223      -0.210169178645965       -0.460686364434455       -0.382409811707023       -0.204543246616523       -0.382409811707023       -0.204543246616523      -0.0368015519462563       -0.437213944130505
541414141.414142      -0.221173856121067       -0.450322777019084       -0.408052980056171       -0.141708629335623       -0.408052980056171       -0.141708629335623      -0.0529375227242074       -0.447778268314074
560606060.606061      -0.231180150157226       -0.436921962587387       -0.423278470136605      -0.0823782007609138       -0.423278470136605      -0.0823782007609138      -0.0711445248792918       -0.451435701323925
579797979.79798      -0.239123951305155       -0.421873513627116       -0.430271076803575      -0.0268183417549806       -0.430271076803575      -0.0268183417549805       -0.089160588584128       -0.449938779879766
598989898.989899      -0.244682975835238       -0.406336345874571       -0.430642371549999       0.0248220625053706       -0.430642371549999       0.0248220625053707       -0.105825797251059       -0.444840746653597
618181818.181818      -0.247950890967431       -0.391180973406852       -0.425674358076931       0.0724735844881396       -0.425674358076931       0.0724735844881396        -0.12063623397903        -0.43740604121638
637373737.373738      -0.249234129848407       -0.377005455124994       -0.416433185052079        0.116143782482121       -0.416433185052079         0.11614378248212       -0.133472802060207       -0.428611621518129
656565656.565657      -0.248926202694649        -0.36417853861453       -0.403821183381294        0.155914046536577       -0.403821183381294        0.155914046536577       -0.144432420239825       -0.419180693645986
675757575.757576      -0.247432503808451       -0.352889656996306       -0.388602435625355        0.191929511929148       -0.388602435625355        0.191929511929148       -0.153722099390402       -0.409626215004564
694949494.949495       -0.24512839687583        -0.34319628481601       -0.371418580865042        0.224384262197217       -0.371418580865042        0.224384262197217       -0.161593326065466        -0.40029444337549
714141414.141415       -0.24233891130725       -0.335064473161769       -0.352801909179914        0.253505250367463       -0.352801909179914        0.253505250367463        -0.16830285392551       -0.391404164933808
733333333.333334      -0.239331943524043       -0.328401273678975       -0.333188120351018         0.27953745715132       -0.333188120351018         0.27953745715132       -0.174090791640453         -0.3830798644475
752525252.525253       -0.23631937888118       -0.323079328921372       -0.312929093280762         0.30273160760805       -0.312929093280762         0.30273160760805       -0.179169809489394       -0.375378528518539
771717171.717172      -0.233462402593192       -0.318954663198489       -0.292305310670625        0.323334846335212       -0.292305310670625        0.323334846335212       -0.183721250018198       -0.368310539392889
790909090.909091      -0.230878615864748       -0.315878967401771       -0.271537480428549        0.341584211214875       -0.271537480428549        0.341584211214875       -0.187895304486253        -0.36185547478149
810101010.101011      -0.228649522285421       -0.313707648718941       -0.250797015425477        0.357702475416194       -0.250797015425477        0.357702475416194       -0.191813391269988       -0.355973734481071
829292929.29293      -0.226827589697311       -0.312304756378226       -0.230215199693831        0.371895846320384       -0.230215199693831        0.371895846320384       -0.195571553671486       -0.350614875675776
848484848.484849      -0.225442504404566       -0.311545687337209         -0.2098910108697        0.384353034430858         -0.2098910108697        0.384353034430858       -0.199244159745273       -0.345723429254101
867676767.676768      -0.224506485155717       -0.311318370967085        -0.18989766622644        0.395245277694285        -0.18989766622644        0.395245277694285        -0.20288749519849       -0.341242835717671
886868686.868687      -0.224018666574191       -0.311523452753546       -0.170288015755079        0.404726992569308       -0.170288015755079        0.404726992569308        -0.20654303823477       -0.337118007682541
906060606.060607       -0.22396863446368       -0.312073851582085       -0.151098930368762        0.412936804605615       -0.151098930368762        0.412936804605615       -0.210240327240437       -0.333296909474795
925252525.252526      -0.224339225745359       -0.312893952679622        -0.13235483692724        0.419998780477821        -0.13235483692724        0.419998780477821       -0.213999403878967       -0.329731447509723
944444444.444445      -0.225108711709793       -0.313918614381091       -0.114070542939872        0.426023738384575       -0.114070542939872        0.426023738384575       -0.217832853390704       -0.326377888045419
963636363.636364       -0.22625247626955       -0.315092106087211      -0.0962534786350294        0.431110555382812      -0.0962534786350294        0.431110555382812       -0.221747482929499       -0.323196959353115
982828282.828283      -0.227744287980005       -0.316367051784644      -0.0789054665804271        0.435347420658599      -0.0789054665804271        0.435347420658599       -0.225745685721851       -0.320153750402898
1002020202.0202      -0.229557249812528       -0.317703423775711      -0.0620241116006495        0.438813005267579      -0.0620241116006495        0.438813005267579       -0.229826538937462       -0.317217484854303
1021212121.21212      -0.231664496212301        -0.31906761117767      -0.0456038876573429        0.441577533651522      -0.0456038876573429        0.441577533651522       -0.233986679685999       -0.314361224821778
1040404040.40404      -0.234039693917095       -0.320431574514766      -0.0296369842152648        0.443703752042599      -0.0296369842152649        0.443703752042599       -0.238220998484225       -0.311561541358001
1059595959.59596      -0.236657391759725       -0.321772089269069      -0.0141139625668511        0.445247795115641       -0.014113962566851        0.445247795115641       -0.242523184020278       -0.308798176116071
1078787878.78788      -0.239493255270253       -0.323070076075179     0.000975737455530507        0.446259956011472     0.000975737455530474        0.446259956011472       -0.246886147705239       -0.306053709866254
1097979797.9798      -0.242524214196828        -0.32431001226808       0.0156434081882181        0.446785366920667       0.0156434081882182        0.446785366920667       -0.251302351655896       -0.303313247435751
1117171717.17172      -0.245728544861712       -0.325479417971678        0.029900776751689         0.44686459835494        0.029900776751689         0.44686459835494       -0.255764059518298       -0.300564124454164
1136363636.36364      -0.249085904328119       -0.326568409328702       0.0437597794235585         0.44653418544415       0.0437597794235585         0.44653418544415       -0.260263525935682       -0.297795638467461
1155555555.55556      -0.252577329451542       -0.327569311466803        0.057232391901628        0.445827089358678       0.0572323919016279        0.445827089358678       -0.264793137447432       -0.294998805125928
1174747474.74747      -0.256185210828699       -0.328476324133293       0.0703305029895637        0.444773101459061       0.0703305029895638        0.444773101459061       -0.269345515113739       -0.292166138966032
1193939393.93939      -0.259893249269816        -0.32928523345516       0.0830658219274521        0.443399197143163       0.0830658219274521        0.443399197143163       -0.273913587121487       -0.289291457584616
1213131313.13131      -0.263686400565977       -0.329993163890356       0.0954498117109939        0.441729845678015       0.0954498117109938        0.441729845678015       -0.278490637969841        -0.28636970759861
1232323232.32323      -0.267550812889187       -0.330598365067269        0.107493642412822        0.439787281619983        0.107493642412822        0.439787281619982       -0.283070339494567       -0.283396810590486
1251515151.51515       -0.27147376005752       -0.331100028823161         0.11920815983135        0.437591742774129         0.11920815983135        0.437591742774129       -0.287646767911703       -0.280369527185971
1270707070.70707      -0.275443573048653       -0.331498132327617        0.130603865822034        0.435161679038307        0.130603865822034        0.435161679038308       -0.292214410195645       -0.277285337445541
1289898989.89899      -0.279449571495272       -0.331793303702648        0.141690907472974        0.432513935927733        0.141690907472974        0.432513935927733       -0.296768162413584       -0.274142335839941
1309090909.09091      -0.283481996400279       -0.331986707023123        0.152479072918873        0.429663916083631        0.152479072918874        0.429663916083631       -0.301303322084314       -0.270939139198875
1328282828.28283      -0.287531944933504       -0.332079943999849        0.162977792082155        0.426625721633698        0.162977792082155        0.426625721633698       -0.305815576187394       -0.267674806155143
1347474747.47475      -0.291591307887429        -0.33207497001552        0.173196141017014        0.423412279889205        0.173196141017014        0.423412279889205       -0.310300986096375       -0.264348766743557
1366666666.66667      -0.295652710156094       -0.331974022504847        0.183142848834607         0.42003545452919        0.183142848834607         0.42003545452919       -0.314755970429439       -0.260960760948299
1385858585.85858      -0.299709454442396       -0.331779559949184        0.192826306423835        0.416506144131459        0.192826306423835        0.416506144131459       -0.319177286587869       -0.257510785120083
1405050505.0505      -0.303755468281824       -0.331494209997172        0.202254576366376        0.412834369658209        0.202254576366376        0.412834369658209       -0.323562011575836        -0.25399904530323
1424242424.24242      -0.307785254385319       -0.331120725431283        0.211435403588282        0.409029352286372        0.211435403588282        0.409029352286372       -0.327907522554629        -0.25042591662166
1443434343.43434      -0.311793844242952        -0.33066194687939        0.220376226402126        0.405099582784909        0.220376226402126        0.405099582784909       -0.332211477473438       -0.246791907971386
1462626262.62626      -0.315776754887509       -0.330120771324787        0.229084187680476        0.401052883479405        0.229084187680476        0.401052883479405       -0.336471796031075         -0.2430976313558
1481818181.81818      -0.319729948688482       -0.329500125600561        0.237566145968653        0.396896463704898        0.237566145968653        0.396896463704898       -0.340686641153863       -0.239343775279142
1501010101.0101      -0.323649796028774       -0.328802944168065        0.245828686396702        0.392636969527862        0.245828686396702        0.392636969527862       -0.344854401120714       -0.235531081683949
1520202020.20202       -0.32753304070609       -0.328032150576946        0.253878131290404        0.388280528414991        0.253878131290404        0.388280528414991       -0.348973672423838       -0.231660325980516
1539393939.39394       -0.33137676789642       -0.327190642088118         0.26172055041183        0.383832789437463         0.26172055041183        0.383832789437463       -0.353043243420531       -0.227732299771407
1558585858.58586      -0.335178374516585       -0.326281277013102        0.269361770783176        0.379298959522798        0.269361770783176        0.379298959522798       -0.357062078805831       -0.223747795922463
1577777777.77778      -0.338935541825523       -0.325306864385144        0.276807386065287        0.374683836200399        0.276807386065287        0.374683836200398       -0.361029304916178        -0.21970759567433
1596969696.96969       -0.34264621010865       -0.324270155630708        0.284062765475428        0.369991837229924        0.284062765475428        0.369991837229924       -0.364944195859256       -0.215612457525914
1616161616.16161      -0.346308555295817       -0.323173837955757        0.291133062238593        0.365227027452512        0.291133062238593        0.365227027452512       -0.368806160453952       -0.211463107653928
1635353535.35353       -0.34992096737042       -0.322020529200668        0.298023221573708        0.360393143162386        0.298023221573708        0.360393143162386       -0.372614729956066       -0.207260231661459
1654545454.54545      -0.353482030434781       -0.320812773951581        0.304737988221089        0.355493614259663        0.304737988221089        0.355493614259662       -0.376369546539439       -0.203004467473616
1673737373.73737      -0.356990504304683       -0.319553040725271        0.311281913520904        0.350531584413336        0.311281913520904        0.350531584413336       -0.380070352497978       -0.198696399220348
1692929292.92929      -0.360445307513785       -0.318243720069909        0.317659362054577        0.345509929435853        0.317659362054577        0.345509929435853       -0.383716980131283       -0.194336551965782
1712121212.12121      -0.363845501616286       -0.316887123445926        0.323874517862339        0.340431274046701        0.323874517862339        0.340431274046701       -0.387309342274935       -0.189925387160302
1731313131.31313      -0.367190276683636       -0.315485482770053        0.329931390250656        0.335298007181634        0.329931390250656        0.335298007181634       -0.390847423435636        -0.18546329870627
1750505050.50505      -0.370478937898257       -0.314040950521976         0.33583381920329        0.330112295986011         0.33583381920329        0.330112295986011        -0.39433127149116       -0.180950609541202
1769696969.69697      -0.373710893153976       -0.312555600327212        0.341585480409354        0.324876098614883        0.341585480409354        0.324876098614883       -0.397760989915364       -0.176387568653431
1788888888.88889      -0.376885641579268       -0.311031427942104        0.347189889921052         0.31959117594871        0.347189889921052         0.31959117594871       -0.401136730489041       -0.171774348455073
1808080808.0808      -0.380002762905432       -0.309470352577515        0.352650408452882         0.31425910232146        0.352650408452882         0.31425910232146       -0.404458686458231       -0.167111042445684
1827272727.27272      -0.383061907607397       -0.307874218507124        0.357970245333033        0.308881275347285        0.357970245333033        0.308881275347285        -0.40772708610253       -0.162397663107428
