! Created Sat Nov 25 14:21:20 2023
# hz S ri R 50
! 2 Port Network Data from SP1.SP block
! freq  reS11  imS11  reS21  imS21  reS12  imS12  reS22  imS22  
!     
100000000       0.726508578273309       -0.681037536499317      -0.0799995944765812       0.0444209911845676      -0.0799995944765812       0.0444209911845676       -0.962169255742157        0.256626506289484
119191919.191919       0.619141024692496       -0.774796469554738       -0.105146562024849       0.0727943871640804       -0.105146562024849       0.0727943871640804       -0.943144716247398          0.3067950812943
138383838.383838       0.499730845916771       -0.849551531227099       -0.128714681455744        0.109379194578977       -0.128714681455744        0.109379194578977       -0.919053402942753        0.356103306795018
157575757.575758       0.372102136090575       -0.903261133903651       -0.148420188908579        0.153723036075482       -0.148420188908579        0.153723036075482       -0.889647504635911        0.403569068684872
176767676.767677       0.240616988550484       -0.934823138622451       -0.162182118060552        0.204709855401146       -0.162182118060552        0.204709855401146       -0.854993741557196        0.448080949808248
195959595.959596       0.109861789766051       -0.944273494694963       -0.168342130923368         0.26065088014841       -0.168342130923368         0.26065088014841       -0.815515350537596        0.488525084997261
215151515.151515     -0.0157461473228475       -0.932841892022086       -0.165837964663426        0.319461786148884       -0.165837964663425        0.319461786148884       -0.771976594001334        0.523921821439951
234343434.343434      -0.132352584557825       -0.902836488443033       -0.154292103523652        0.378897103824989       -0.154292103523652        0.378897103824988       -0.725410540829826        0.553543565364337
253535353.535354      -0.236977788383505       -0.857377204667187        -0.13399812048791        0.436795559084168        -0.13399812048791        0.436795559084168       -0.677006150864105        0.576989440945174
272727272.727273      -0.327686776766611       -0.800037778809183         -0.1058143538417        0.491288358636189         -0.1058143538417        0.491288358636189        -0.62798064363893        0.594204832027187
291919191.919192      -0.403601805742126       -0.734474438802735      -0.0709967603845709        0.540936540790137      -0.0709967603845708        0.540936540790137       -0.579463905009005        0.605449173461003
311111111.111111      -0.464781465935623       -0.664109742057443      -0.0310119027423666        0.584786030369595      -0.0310119027423666        0.584786030369595       -0.532414113183037        0.611227267598877
330303030.30303       -0.51201582253098       -0.591912632882301       0.0126337025060283         0.62235007999779       0.0126337025060283         0.62235007999779       -0.487572257485654        0.612204264292627
349494949.49495      -0.546591745298402       -0.520284324303679        0.058524999374548        0.653541513833452        0.058524999374548        0.653541513833452       -0.445452751984168        0.609122450656861
368686868.686869      -0.570071859266608       -0.451035603683678        0.105422659553815        0.678580151739361        0.105422659553815         0.67858015173936       -0.406360940541921        0.602731969054133
387878787.878788      -0.584113205535046       -0.385429117894746        0.152303809086253         0.69789663126875        0.152303809086253         0.69789663126875       -0.370426392097483        0.593740793477415
407070707.070707      -0.590335234531614       -0.324258709475423        0.198369055422579        0.712046570141723        0.198369055422579        0.712046570141723       -0.337642218207743        0.582783949919623
426262626.262626       -0.59023507284553       -0.267942802477265        0.243027260229705        0.721641853116145        0.243027260229705        0.721641853116145       -0.307903468898354        0.570408836236519
445454545.454546      -0.585141767210249       -0.216616076508903        0.285868194481858        0.727300462702753        0.285868194481858        0.727300462702753       -0.281040614608678         0.55707233397147
464646464.646465      -0.576199250358697        -0.17021049979449        0.326630662741481        0.729613061699724        0.326630662741481        0.729613061699724       -0.256846474719447        0.543145541064646
483838383.838384      -0.564368425262218       -0.128521985179509         0.36517103143601        0.729123101878224         0.36517103143601        0.729123101878224       -0.235096503955254        0.528922729645319
503030303.030303      -0.550440606064943      -0.0912622880253043        0.401434909950678        0.726316974228288        0.401434909950678        0.726316974228288       -0.215563191344567        0.514632078827293
522222222.222223      -0.535056654190479       -0.058097596349949        0.435433176742972        0.721621088034691        0.435433176742972        0.721621088034691       -0.198025664107859        0.500446590806444
541414141.414142      -0.518728020685697      -0.0286760326558451        0.467222560713594        0.715403385836866        0.467222560713594        0.715403385836866       -0.182275619295705        0.486494268109859
560606060.606061      -0.501857370733771     -0.00264641149971709        0.496890444350556        0.707977444739214        0.496890444350557        0.707977444739214       -0.168120580188372        0.472867100326048
579797979.79798       -0.48475751408633       0.0203296143720429        0.524543307726324        0.699607874195147        0.524543307726324        0.699607874195147       -0.155385290153674        0.459628711339417
598989898.989899      -0.467668062055045       0.0405702345720236        0.550298165715584        0.690516161006035        0.550298165715584        0.690516161006035       -0.143911868837929        0.446820695813349
618181818.181818      -0.450769663826604       0.0583695746048498        0.574276382636598        0.680886436404723        0.574276382636598        0.680886436404723       -0.133559190300067        0.434467766068199
637373737.373738      -0.434195921744536       0.0739961261554644        0.596599325891018        0.670870866263233        0.596599325891018        0.670870866263233       -0.124201808824476        0.422581868790334
656565656.565657      -0.418043210140555        0.087692719828998        0.617385411745645        0.660594516105026        0.617385411745645        0.660594516105026       -0.115728655456051        0.411165437460351
675757575.757576      -0.402378671447028       0.0996774692475407        0.636748185369564        0.650159638333154        0.636748185369564        0.650159638333154       -0.108041652604615        0.400213935806255
694949494.949495      -0.387246668292089        0.110145285631908        0.654795155835627        0.639649386651734        0.654795155835627        0.639649386651734       -0.101054340012219        0.389717829223854
714141414.141415      -0.372673951650885        0.119269688209477        0.671627172430143        0.629130994697305        0.671627172430143        0.629130994697305      -0.0946905678296098        0.379664100395044
733333333.333334      -0.358673775678465        0.127204727280035        0.687338181438067        0.618658471481299        0.687338181438067        0.618658471481299       -0.088883287148467        0.370037405227522
752525252.525253      -0.345249157114594        0.134086901813703        0.702015243993355        0.608274871644896        0.702015243993355        0.608274871644896      -0.0835734516328989        0.360820947158697
771717171.717172      -0.332395445280552        0.140036998862532        0.715738727448242        0.598014197939389        0.715738727448241        0.598014197939389      -0.0787090332743219        0.351997132338749
790909090.909091      -0.320102339741047        0.145161813187431        0.728582606865578        0.587902989495209        0.728582606865578        0.587902989495209      -0.0742441488425994        0.343548055267663
810101010.101011      -0.308355467496114        0.149555726396293        0.740614831324403        0.577961644047126        0.740614831324403        0.577961644047126      -0.0701382899516939         0.33545585389932
829292929.29293      -0.297137610214412        0.153302138570154        0.751897723136378        0.568205516383128        0.751897723136378        0.568205516383128      -0.0663556478376112        0.327702964732034
848484848.484849      -0.286429654273597        0.156474754017375        0.762488387919347        0.558645829480598        0.762488387919347        0.558645829480598       -0.062864523295903         0.32027230164794
867676767.676768      -0.276211321825216         0.15913872801791        0.772439120645473        0.549290429405844        0.772439120645473        0.549290429405844      -0.0596368122946127         0.31314737693126
886868686.868687      -0.266461729292091        0.161351684319327         0.78179779795595         0.54014441022861         0.78179779795595         0.54014441022861      -0.0566475582653367        0.306312378712631
906060606.060607       -0.25715981018928        0.163164614508623        0.790608250731128        0.531210630985048        0.790608250731128        0.531210630985048      -0.0538745627828214        0.299752215820491
925252525.252526      -0.248284631531247        0.164622670753986        0.798910613515207        0.522490143095515        0.798910613515207        0.522490143095515      -0.0512980471461127        0.293452538479015
944444444.444445       -0.23981562699741        0.165765863162658        0.806741649211235        0.513982543561273        0.806741649211235        0.513982543561273      -0.0489003581933733        0.287399741319962
963636363.636364      -0.231732765179751         0.16662967238869        0.814135048702462        0.505686266667411        0.814135048702462        0.505686266667411       -0.046665712471775        0.281580953648711
982828282.828283      -0.224016667384578          0.1672455873169        0.821121705881051        0.497598824745322        0.821121705881051        0.497598824745322      -0.0445799736177738        0.275984020724581
1002020202.0202      -0.216648686405517        0.167641576757605        0.827729969092811        0.489717006736137        0.827729969092811        0.489717006736137        -0.04263045846962        0.270597478904889
1021212121.21212      -0.209610955264376        0.167842503181362        0.833985870323835        0.482037041791567        0.833985870323835        0.482037041791567      -0.0408057680293177        0.265410526800591
1040404040.40404      -0.202886413000157        0.167870485647251        0.839913333624596        0.474554733901269        0.839913333624596        0.474554733901269      -0.0390956399168839        0.260412994051762
1059595959.59596      -0.196458813070299        0.167745218257004        0.845534364335126         0.46726557250381        0.845534364335126         0.46726557250381      -0.0374908194198164        0.255595308916872
1078787878.78788      -0.190312718728906         0.16748424971333        0.850869220674332        0.460164823185161        0.850869220674332        0.460164823185161      -0.0359829466408103        0.250948465552331
1097979797.9798      -0.184433488798596        0.167103228878737        0.855936569210972        0.453247601863737        0.855936569210972        0.453247601863737      -0.0345644575931529        0.246463991616245
1117171717.17172      -0.178807256503209        0.166616120621028        0.860753625660256        0.446508935278699        0.860753625660256        0.446508935278699      -0.0332284973920931        0.242133916645457
1136363636.36364      -0.173420903436567        0.166035395690164        0.865336282360152        0.439943810117118        0.865336282360152        0.439943810117118      -0.0319688439477099        0.237950741514691
1155555555.55556       -0.16826203027504        0.165372197893629        0.869699223683722        0.433547212717926        0.869699223683722        0.433547212717926      -0.0307798407858385        0.233907409180741
1174747474.74747      -0.163318925472816        0.164636491418141        0.873856030543634         0.42731416096176        0.873856030543634         0.42731416096176      -0.0296563378133055        0.229997276835126
1193939393.93939      -0.158580532888003        0.163837190778724        0.877819275046256        0.421239729683654        0.877819275046256        0.421239729683654      -0.0285936390064951        0.226214089529528
1213131313.13131      -0.154036419058837        0.162982275556072        0.881600606257847        0.415319070720201        0.881600606257847        0.415319070720201      -0.0275874561418226        0.222551955294777
1232323232.32323      -0.149676740669266        0.162078891804306         0.88521082795573        0.409547428515972         0.88521082795573        0.409547428515972      -0.0266338678064251        0.219005321742546
1251515151.51515      -0.145492212602106        0.161133441768764        0.888659969153826        0.403920152059063        0.888659969153826        0.403920152059063      -0.0257292830300808        0.215568954116454
1270707070.70707      -0.141474076867574        0.160151663342722        0.891957348114844        0.398432703786927        0.891957348114844        0.398432703786927      -0.0248704089675789         0.21223791474371
1289898989.89899      -0.137614072608889        0.159138700508928        0.895111630490803        0.393080665996714        0.895111630490804        0.393080665996714      -0.0240542221365013        0.209007543828166
1309090909.09091      -0.133904407319883        0.158099165852937        0.898130882169261        0.387859745205379        0.898130882169261        0.387859745205379      -0.0232779427805319        0.205873441519274
1328282828.28283       -0.13033772935798        0.157037196097275        0.901022617344289        0.382765774830717        0.901022617344289        0.382765774830717      -0.0225390119844805        0.202831451188053
1347474747.47475      -0.126907101796382        0.155956501485637        0.903793842278544        0.377794716502745        0.903793842278544        0.377794716502745      -0.0218350712155101        0.199877643839951
1366666666.66667       -0.12360597762926         0.15486040974227        0.906451095175275        0.372942660263366        0.906451095175275        0.372942660263366      -0.0211639440067298         0.19700830359482
1385858585.85858      -0.120428176321278         0.15375190524122        0.909000482536408        0.368205823869208        0.909000482536408        0.368205823869208      -0.0205236195353017        0.194219914165732
1405050505.0505      -0.117367861676049        0.152633663941531        0.911447712344484        0.363580551376694        0.911447712344485        0.363580551376694      -0.0199122378783276        0.191509146270619
1424242424.24242      -0.114419520986171        0.151508084575981        0.913798124371827        0.359063311158275        0.913798124371827        0.359063311158275      -0.0193280767567255        0.188872845913523
1443434343.43434      -0.111577945419034        0.150377316521403        0.916056717889507        0.354650693473722        0.916056717889507        0.354650693473722      -0.0187695396006506        0.186308023475347
1462626262.62626      -0.108838211586953        0.149243284726696        0.918228177021069        0.350339407699311        0.918228177021069        0.350339407699311       -0.018235144790303        0.183811843557309
1481818181.81818      -0.106195664246781        0.148107712029315        0.920316893961242        0.346126279300141        0.920316893961242        0.346126279300141      -0.0177235159435785        0.181381615523656
1501010101.0101      -0.103645900072309        0.146972139151516        0.922326990257801        0.342008246616092        0.922326990257801        0.342008246616092      -0.0172333731373628        0.179014784693556
1520202020.20202      -0.101184752442288        0.145837942633068          0.9242623363349         0.33798235751959          0.9242623363349         0.33798235751959      -0.0167635249626374        0.176708924135371
1539393939.39394     -0.0988082771873005        0.144706350926907        0.926126569418495        0.334045765992963        0.926126569418495        0.334045765992963      -0.0163128613252366        0.174461727019673
1558585858.58586     -0.0965127392398476          0.1435784588578        0.927923110008638        0.330195728664588        0.927923110008638        0.330195728664588      -0.0158803469142924        0.172270999490459
1577777777.77778     -0.0942946001336706        0.142455240620834        0.929655177029165        0.326429601335668        0.929655177029165        0.326429601335668      -0.0154650152693332        0.170134654016834
1596969696.96969     -0.0921505063002745        0.141337561476258        0.931325801772639        0.322744835523511        0.931325801772639        0.322744835523512      -0.0150659633848155        0.168050703190255
1616161616.16161     -0.0900772781128921        0.140226188279325        0.932937840746934        0.319138975042021        0.932937840746935        0.319138975042021      -0.0146823467977463        0.166017253934905
1635353535.35353     -0.0880718996304621        0.139121798968092        0.934493987519664        0.315609652635913        0.934493987519664        0.315609652635913      -0.0143133751100702        0.164032502101245
1654545454.54545     -0.0861315089966471        0.138024991118298        0.935996783647457        0.312154586681616        0.935996783647457        0.312154586681616      -0.0139583079028129        0.162094727414978
1673737373.73737     -0.0842533894513826        0.136936289662322        0.937448628768833        0.308771577964853        0.937448628768833        0.308771577964853      -0.0136164510036504        0.160202288755795
1692929292.92929       -0.08243496091487        0.135856153858441        0.938851789932051        0.305458506542444        0.938851789932051        0.305458506542444      -0.0132871530736762        0.158353619742149
1712121212.12121     -0.0806737721063333        0.134784983587176        0.940208410222609        0.302213328693845        0.940208410222609        0.302213328693845      -0.0129698024828163        0.156547224600172
1731313131.31313     -0.0789674931621563        0.133723125043162        0.941520516749115        0.299034073966252        0.941520516749115        0.299034073966252      -0.0126638244465378        0.154781674296447
1750505050.50505     -0.0773139087202511        0.132670875883532        0.942790028040841        0.295918842315667        0.942790028040841        0.295918842315667      -0.0123686783993557        0.153055602915934
1769696969.69697     -0.0757109114396435        0.131628489887312        0.944018760905405        0.292865801345239        0.944018760905405        0.292865801345239      -0.0120838555831826        0.151367704267722
1788888888.88889     -0.0741564959262567        0.130596181174503        0.945208436790681        0.289873183641211        0.945208436790681        0.289873183641211      -0.0118088768307933         0.14971672870264
1808080808.0808     -0.0726487530378473        0.129574128028373        0.946360687691028         0.28693928420608        0.946360687691028         0.28693928420608      -0.0115432905266989        0.148101480127929
1827272727.27272     -0.0711858645427919        0.128562476359919        0.947477061634403        0.284062457987918        0.947477061634403        0.284062457987918      -0.0112866707294672        0.146520813205306
