! Created Sat Nov 25 14:18:16 2023
# hz S ri R 50
! 2 Port Network Data from SP1.SP block
! freq  reS11  imS11  reS21  imS21  reS12  imS12  reS22  imS22  
!     
10000000   -0.000930008077318356      -0.0222391149793613        0.999267507788523      -0.0311288398651086        0.999267507788523      -0.0311288398651086    -0.000456022451657878      -0.0222538804205899
13980000    -0.00181665505075779       -0.031058579306442        0.998568984730588      -0.0434976676754831        0.998568984730588      -0.0434976676754831    -0.000890925038502743      -0.0310989041125033
17960000    -0.00299616961819127      -0.0398465249639413        0.997639455765773      -0.0558461606407187        0.997639455765773      -0.0558461606407187     -0.00146969508871198      -0.0399319744183612
21940000    -0.00446731780577481      -0.0485940534893755        0.996479656932156      -0.0681685726729664        0.996479656932156      -0.0681685726729664     -0.00219191050834344       -0.048749712737658
25920000    -0.00622856247496273      -0.0572923219825204        0.995090505219637      -0.0804591897524329        0.995090505219637      -0.0804591897524329     -0.00305704541074858      -0.0575487586581175
29900000    -0.00827806620178129      -0.0659325551312167        0.993473096932109      -0.0927123368716087        0.993473096932109      -0.0927123368716087     -0.00406447104084329      -0.0663257738949674
33880000     -0.0106136947094797       -0.074506057067308        0.991628705734739       -0.104922384883504        0.991628705734739       -0.104922384883504     -0.00521345687710784      -0.0750774461761686
37860000     -0.0132330208432931      -0.0830042230235952          0.9895587803927       -0.117083757237441          0.9895587803927       -0.117083757237441     -0.00650317190774163      -0.0838004930643336
41840000     -0.0161333290743294      -0.0914185507635243        0.987264942208671       -0.129190936586398        0.987264942208671       -0.129190936586398     -0.00793268607686259      -0.0924916657063299
45820000     -0.0193116205179393      -0.0997406517562643         0.98474898216736       -0.141238471250473         0.98474898216736       -0.141238471250473     -0.00950097189610777       -0.101147752501862
49800000     -0.0227646184503439       -0.107962262070883        0.982012857796181       -0.153220981521563        0.982012857796181       -0.153220981521563      -0.0112069062164941       -0.109765582682657
53780000     -0.0264887743057947       -0.116075252964476        0.979058689752082       -0.165133165795067        0.979058689752082       -0.165133165795067      -0.0130492721549241       -0.118342029794252
57760000     -0.0304802741351402       -0.124071641140358        0.975888758145296       -0.176969806515071        0.975888758145296       -0.176969806515071      -0.0150267611692743       -0.126874015072748
61740000     -0.0347350455053504       -0.131943598653725        0.972505498611539       -0.188725775920252        0.972505498611539       -0.188725775920252      -0.0171379752755836       -0.135358510709356
65720000     -0.0392487648183484       -0.139683462443659        0.968911498144859       -0.200396041578508        0.968911498144859       -0.200396041578508       -0.019381429400482       -0.143792542995965
69700000     -0.0440168650263821        -0.14728374347175        0.965109490703951       -0.211975671699172        0.965109490703951       -0.211975671699172      -0.0217555538616405       -0.152173195345464
73680000     -0.0490345437201951       -0.154737135449211        0.961102352605349       -0.223459840212508        0.961102352605349       -0.223459840212508      -0.0242586969687165       -0.160497611181002
77660000       -0.05429677156534       -0.162036523135928        0.956893097717356       -0.234843831607116        0.956893097717356       -0.234843831607116      -0.0268891277369788       -0.168762996688909
81640000     -0.0597983010612573       -0.169174990196486        0.952484872469045       -0.246123045516756        0.952484872469045       -0.246123045516755      -0.0296450387055659       -0.176966623430479
85620000     -0.0655336755970501       -0.176145826599948        0.947880950689004       -0.257293001049047        0.947880950689004       -0.257293001049047      -0.0325245488521057       -0.185105830808383
89600000     -0.0714972387773993       -0.182942535551776        0.943084728288824       -0.268349340849482        0.943084728288824       -0.268349340849482      -0.0355257065952835       -0.193178028383976
93580000     -0.0776831439916152       -0.189558839948048        0.938099717806522       -0.279287834895091        0.938099717806522       -0.279287834895091      -0.0386464928767841       -0.201180698042331
97560000       -0.08408536419857       -0.195988688343798        0.932929542825295       -0.290104384013124        0.932929542825295       -0.290104384013124      -0.0418848243139689       -0.209111396002356
101540000     -0.0906977019000483       -0.202226260429027        0.927577932283077       -0.300795023121021        0.927577932283076       -0.300795023121021      -0.0452385564145663       -0.216967754669897
105520000      -0.097513799275021       -0.208265972007643        0.922048714688416       -0.311355924184941        0.922048714688416       -0.311355924184941      -0.0487054868446617       -0.224747484332275
109500000      -0.104527148447388       -0.214102479476226        0.916345812258151       -0.321783398895029        0.916345812258151       -0.321783398895029      -0.0522833587412596       -0.232448374693215
113480000      -0.111731101859909       -0.219730683801214        0.910473234992282       -0.332073901056557        0.910473234992282       -0.332073901056557      -0.0559698640607699        -0.24006829624767
117460000      -0.119118882727303       -0.225145733994682        0.904435074701279        -0.34222402869696        0.904435074701279        -0.34222402869696      -0.0597626469548294        -0.24760520149654
121440000      -0.126683595541886       -0.230343030090466        0.898235499000866       -0.352230525889694        0.898235499000866       -0.352230525889694      -0.0636593071650069       -0.255057126001787
125420000      -0.134418236605564       -0.235318225623924        0.891878745289048       -0.362090284296692        0.891878745289048       -0.362090284296692      -0.0676574034280688       -0.262422189282932
129400000      -0.142315704562577       -0.240067229620076        0.885369114719844       -0.371800344432009        0.885369114719844       -0.371800344432009      -0.0717544568836718       -0.269698595556391
133380000      -0.150368810908021       -0.244586208096281        0.878710966187833       -0.381357896650072        0.878710966187833       -0.381357896650072       -0.075947954476546        -0.27688463431952
137360000      -0.158570290447926       -0.248871585086945        0.871908710337186       -0.390760281862668        0.871908710337186       -0.390760281862668       -0.080235352345456       -0.283978680781732
141340000      -0.166912811687421       -0.252920043199044         0.86496680360845       -0.400004991989558         0.86496680360845       -0.400004991989558      -0.0846140791914891       -0.290979196145368
145320000      -0.175388987124447        -0.25672852370842        0.857889742335831       -0.409089670148248        0.857889742335831       -0.409089670148248      -0.0890815396184851       -0.297884727739462
149300000      -0.183991383427353       -0.260294226207956         0.85068205690721       -0.418012110589112         0.85068205690721       -0.418012110589112      -0.0936351174387111       -0.304693909009833
153280000      -0.192712531475711       -0.263614607819755        0.843348305998593        -0.42677025838262        0.843348305998593        -0.42677025838262      -0.0982721789372054       -0.311405459369323
157260000      -0.201544936244729       -0.266687381984421        0.835893070894097       -0.435362208865986        0.835893070894097       -0.435362208865986       -0.102990076088526       -0.318018183912255
161240000      -0.210481086514695       -0.269510516841425        0.828320949901986       -0.443786206857054        0.828320949901986       -0.443786206857054       -0.107786149719987       -0.324530972997499
165220000      -0.219513464387972       -0.272082233215313        0.820636552876642       -0.452040645643646        0.820636552876642       -0.452040645643646       -0.112657732615802       -0.330942801704779
169200000      -0.228634554597253       -0.274401002223236        0.812844495855749       -0.460124065757056        0.812844495855749       -0.460124065757056        -0.11760215255692       -0.337252729169059
173180000      -0.237836853589851       -0.276465542519897        0.804949395821271       -0.468035153538675        0.804949395821271       -0.468035153538675       -0.122616735291702       -0.343459897798077
177160000      -0.247112878374055       -0.278274817196559        0.796955865592203       -0.475772739509072        0.796955865592203       -0.475772739509072       -0.127698807432947        -0.34956353237824
181140000      -0.256455175114683       -0.279828030351205        0.788868508856393       -0.483335796549092        0.788868508856393       -0.483335796549092       -0.132845699277144       -0.355562939074259
185120000       -0.26585632746619       -0.281124623347318         0.78069191534805       -0.490723437902763         0.78069191534805       -0.490723437902763       -0.138054747542218       -0.361457504328013
189100000      -0.275308964632838       -0.282164270779047        0.772430656176942       -0.497934915011955        0.772430656176942       -0.497934915011955        -0.14332329802039       -0.367246693662218
193080000      -0.284805769146606       -0.282946876160745        0.764089279314593       -0.504969615192883        0.764089279314593       -0.504969615192883       -0.148648708143128       -0.372930050394577
197060000      -0.294339484354678       -0.283472567358988        0.755672305242145       -0.511827059164584        0.755672305242145       -0.511827059164584       -0.154028349455569       -0.378507194268093
201040000      -0.303902921609472       -0.283741691785279        0.747184222763948       -0.518506898439604        0.747184222763948       -0.518506898439604       -0.159459609998107       -0.383977820003287
205020000      -0.313488967155287       -0.283754811367628        0.738629484990267       -0.525008912587066        0.738629484990267       -0.525008912587067       -0.164939896593226       -0.389341695778039
209000000      -0.323090588706746       -0.283512697319126        0.730012505491922       -0.531333006378304        0.730012505491922       -0.531333006378304       -0.170466637035971       -0.394598661640773
212980000       -0.33270084171523       -0.283016324721518         0.72133765462907       -0.537479206825151         0.72133765462907       -0.537479206825151       -0.176037282186806       -0.399748627862641
216960000      -0.342312875320585       -0.282266866941579        0.712609256055758        -0.54344766012089        0.712609256055757        -0.54344766012089       -0.181649307965935        -0.40479157323434
220940000      -0.351919937986296        -0.28126568989787        0.703831583401327       -0.549238628493713        0.703831583401327       -0.549238628493713        -0.18730021724843       -0.409727543313075
224920000      -0.361515382817335       -0.280014346195138         0.69500885712923        -0.55485248698239         0.69500885712923        -0.55485248698239        -0.19298754165988       -0.414556648625146
228900000      -0.371092672560756       -0.278514569143286         0.68614524157327        -0.56028972014367         0.68614524157327        -0.56028972014367       -0.198708843272491       -0.419279062829473
232880000      -0.380645384289995       -0.276768266677486        0.677244842150846       -0.565550918700692        0.677244842150846       -0.565550918700692       -0.204461716201893       -0.423895020847301
236860000      -0.390167213774639       -0.274777515195526        0.668311702752257        -0.57063677614147        0.668311702752257       -0.570636776141469        -0.21024378810514       -0.428404816963162
240840000      -0.399651979538232       -0.272544553328079        0.659349803304755       -0.575548085276264        0.659349803304755       -0.575548085276264       -0.216052721580641       -0.432808802902052
244820000       -0.40909362660737       -0.270071775657052        0.650363057509562        -0.58028573476236        0.650363057509562        -0.58028573476236       -0.221886215471001       -0.437107385887606
248800000      -0.418486229956056       -0.267361726396676         0.64135531074972       -0.584850705604486        0.641355310749719       -0.584850705604486       -0.227742006069948       -0.441301026685907
252780000      -0.427823997649912       -0.264417093051437        0.632330338166276       -0.589244067638829        0.632330338166276       -0.589244067638829       -0.233617868234744       -0.445390237639395
256760000      -0.437101273695419       -0.261240700064411        0.623291842899983       -0.593466976008245        0.623291842899983       -0.593466976008245       -0.239511616405638       -0.449375580695148
260740000      -0.446312540599914        -0.25783550246894        0.614243454495356       -0.597520667635987        0.614243454495356       -0.597520667635987       -0.245421105534127       -0.453257665431653
264720000      -0.455452421648548       -0.254204579556052        0.605188727463706       -0.601406457704893        0.605188727463706       -0.601406457704893       -0.251344231921901       -0.457037147087973
268700000      -0.464515682904886       -0.250351128569363        0.596131140001457       -0.605125736148676        0.596131140001457       -0.605125736148676       -0.257278933972534       -0.460714724599045
272680000      -0.473497234942192       -0.246278458438637        0.587074092859884       -0.608679964161606        0.587074092859884       -0.608679964161606       -0.263223192858083       -0.464291138640637
276660000      -0.482392134312829        -0.24198998356252        0.578020908362153       -0.612070670732509        0.578020908362153       -0.612070670732509       -0.269175033102883       -0.467767169687319
280640000      -0.491195584763527       -0.237489217650393        0.568974829563403       -0.615299449208701        0.568974829563403       -0.615299449208701       -0.275132523086916       -0.471143636086587
284620000      -0.499902938204502       -0.232779767632623        0.559939019549454       -0.618367953895097        0.559939019549454       -0.618367953895097       -0.281093775471234       -0.474421392152098
288600000      -0.508509695440693       -0.227865327647922        0.550916560869561       -0.621277896693401        0.550916560869561       -0.621277896693401        -0.28705694754798       -0.477601326278789
292580000      -0.517011506673539       -0.222749673115879        0.541910455098563       -0.624031043785963        0.541910455098563       -0.624031043785963       -0.293020241517611        -0.48068435908244
296560000      -0.525404171781903        -0.21743665490216         0.53292362252367       -0.626629212368521         0.53292362252367       -0.626629212368521       -0.298981904695985       -0.483671441566075
300540000       -0.53368364039085       -0.211930193583271        0.523958901951041        -0.62907426743574        0.523958901951041        -0.62907426743574       -0.304940229654016       -0.486563553315405
304520000       -0.54184601173708       -0.206234273817175        0.515019050627306       -0.631368118623137        0.515019050627307       -0.631368118623137       -0.310893554292608       -0.489361700725313
308500000      -0.549887534339882       -0.200352938825541        0.506106744271099       -0.633512717108631        0.506106744271099        -0.63351271710863       -0.316840261855631       -0.492066915259255
312480000      -0.557804605486484       -0.194290284992793        0.497224577209684        -0.63551005257671        0.497224577209684        -0.63551005257671       -0.322778780883678       -0.494680251743206
316460000      -0.565593770540682       -0.188050456586637        0.488375062615754        -0.63736215024784        0.488375062615754       -0.637362150247841       -0.328707585111373       -0.497202786695685
320440000      -0.573251722083591       -0.181637640604195        0.479560632839492       -0.639071067975496        0.479560632839492       -0.639071067975496       -0.334625193310955       -0.499635616695177
324420000      -0.580775298895321        -0.17505606174738        0.470783639831008       -0.640638893412893        0.470783639831008       -0.640638893412893       -0.340530169084886       -0.501979856786136
328400000      -0.588161484786278       -0.168309977530674        0.462046355648334       -0.642067741251243        0.462046355648334       -0.642067741251243       -0.346421120610177       -0.504236638924591
332380000      -0.595407407286723        -0.16140367352399        0.453350973046165       -0.643359750531068        0.453350973046165       -0.643359750531068       -0.352296700337112       -0.506407110464257
336360000      -0.602510336203068       -0.154341458732851         0.44469960614066       -0.644517082027899         0.44469960614066       -0.644517082027899       -0.358155604645012       -0.508492432683856
340340000      -0.609467682049284       -0.147127661117708        0.436094291145642       -0.645541915713399        0.436094291145642       -0.645541915713399       -0.363996573457626       -0.510493779356296
344320000      -0.616276994361613       -0.139766623253811        0.427536987175643       -0.646436448292772        0.427536987175643       -0.646436448292772       -0.369818389820709       -0.512412335360153
348300000      -0.622935959904636       -0.132262698132623        0.419029577111335       -0.647202890819062        0.419029577111335       -0.647202890819062       -0.375619879444284       -0.514249295333839
352280000      -0.629442400776546        -0.12462024510547        0.410573868522972       -0.647843466384759        0.410573868522972       -0.647843466384759       -0.381399910212026       -0.516005862372683
356260000      -0.635794272421297       -0.116843625969699        0.402171594647597       -0.648360407890948        0.402171594647597       -0.648360407890948       -0.387157391660151       -0.517683246769075
360240000      -0.641989661555099       -0.108937201197351        0.393824415415854       -0.648755955894022        0.393824415415854       -0.648755955894023       -0.392891274428137       -0.519282664795687
364220000      -0.648026784014496       -0.100905326305993        0.385533918524374       -0.649032356529842        0.385533918524374       -0.649032356529843       -0.398600549683536       -0.520805337531727
368200000      -0.653903982533085      -0.0927523483711315        0.377301620549844       -0.649191859515039        0.377301620549844       -0.649191859515039       -0.404284248523044        -0.52225248973205
372180000      -0.659619724453672      -0.0844826026792912        0.369128968100951       -0.649236716225022        0.369128968100951       -0.649236716225022       -0.409941441351977       -0.523625348738915
376160000      -0.665172599382463      -0.0761004095206463        0.361017339004544       -0.649169177848111        0.361017339004544       -0.649169177848111       -0.415571237244176       -0.524925143436038
380140000      -0.670561316791623      -0.0676100711198349        0.352968043522505       -0.648991493615079        0.352968043522505       -0.648991493615079       -0.421172783284337       -0.526153103244586
384120000      -0.675784703576338      -0.0590158687033846        0.344982325595901       -0.648705909103269        0.344982325595901       -0.648705909103269       -0.426745263894653       -0.527310457160628
