! Created Sat Nov 25 14:04:32 2023
# hz S ri R 50
! 2 Port Network Data from SP1.SP block
! freq  reS11  imS11  reS21  imS21  reS12  imS12  reS22  imS22  
!     
100000000       0.732380077406055       -0.677115151714634      -0.0637236465573216       0.0327687407969801      -0.0637236465573216       0.0327687407969801       -0.976801861945048         0.20180096315429
119191919.191919       0.629755945286922       -0.770311432531737      -0.0845503186332587       0.0536562192111001      -0.0845503186332587       0.0536562192111001       -0.965139923295431        0.241820557332189
138383838.383838       0.516592237098786       -0.845939920735644       -0.104930448356267       0.0806703912445987       -0.104930448356267       0.0806703912445987        -0.95029905404413        0.281804181285734
157575757.575758       0.396236929187512       -0.902699135720313       -0.123339345159953        0.113657257488961       -0.123339345159953        0.113657257488961       -0.932012174175336        0.321282960430465
176767676.767677       0.272233008797489       -0.940010758440639       -0.138350659561895        0.152079117067032       -0.138350659561895        0.152079117067032       -0.910140166323356        0.359688635503285
195959595.959596       0.148130294401209       -0.958063490206292       -0.148740279993834        0.195059205421906       -0.148740279993834        0.195059205421906       -0.884700843816093         0.39639961169263
215151515.151515      0.0272840190316226       -0.957794065104744       -0.153571093067326         0.24145813387525       -0.153571093067326         0.24145813387525       -0.855879676788525        0.430794460885528
234343434.343434     -0.0873334734361196       -0.940802416830981       -0.152247421427052        0.289973101242095       -0.152247421427052        0.289973101242095       -0.824020798567122        0.462305144318095
253535353.535354      -0.193282540723594       -0.909210570024705       -0.144532892420296         0.33924657946269       -0.144532892420295         0.33924657946269       -0.789600340308612        0.490462336603318
272727272.727273      -0.288749354523096       -0.865485165570532       -0.130531946193004        0.387969907744601       -0.130531946193004        0.387969907744601       -0.753187160374638         0.51492704616029
291919191.919192       -0.37257515593283       -0.812248732353421       -0.110641284920322        0.434969258555002       -0.110641284920322        0.434969258555002       -0.715397729464008        0.535505684916345
311111111.111111      -0.444225997557456       -0.752103927545297      -0.0854816642770777        0.479265928453413      -0.0854816642770777        0.479265928453413       -0.676851977300895        0.552148943168157
330303030.30303      -0.503716154522688       -0.687489115961926      -0.0558217519536023        0.520108337704883      -0.0558217519536023        0.520108337704883       -0.638135540128167        0.564937413535213
349494949.49495      -0.551502858205619       -0.620575287570465      -0.0225045361041683        0.556977966830218      -0.0225045361041684        0.556977966830218       -0.599771690978157        0.574058367029345
368686868.686869       -0.58837008426239       -0.553206019618891       0.0136161356242163         0.58957471492884       0.0136161356242162         0.58957471492884       -0.562203988116009          0.5797783471777
387878787.878788      -0.615316007244941       -0.486875827571446       0.0517247580169802         0.61778854715256       0.0517247580169802         0.61778854715256       -0.525788870219819        0.582415593986552
407070707.070707      -0.633454072858494        -0.42273857774807       0.0910780820571377        0.641664098467513       0.0910780820571376        0.641664098467513       -0.490796306094425        0.582315166717904
426262626.262626      -0.643932895615309       -0.361636484900172        0.131024956547023        0.661363696711453        0.131024956547023        0.661363696711453       -0.457416163129023        0.579828401261884
445454545.454546       -0.64787629518603        -0.30414089620993        0.171014590082574        0.677132654065911        0.171014590082574        0.677132654065911       -0.425768029217166        0.575297283019233
464646464.646465      -0.646342112716424       -0.250597750280231        0.210596177218507        0.689269099018977        0.210596177218507        0.689269099018977       -0.395912596741372        0.569043561429933
483838383.838384      -0.640296963379461       -0.201172609327789        0.249412712899871        0.698099332780291        0.249412712899871        0.698099332780291       -0.367863209211035        0.561361985992906
503030303.030303      -0.630603531833941       -0.155892042655091         0.28719138354264        0.703958781278408        0.287191383542639        0.703958781278409       -0.341596653352705        0.552516850149997
522222222.222223      -0.618017091411611       -0.114679662252612        0.323732370972605        0.707178055104821        0.323732370972605        0.707178055104821       -0.317062682912358        0.542741011235196
541414141.414142      -0.603188347608317       -0.077386214882236        0.358897365577558         0.70807335205464        0.358897365577558         0.70807335205464       -0.294192061317242        0.532236639068371
560606060.606061      -0.586670265523694      -0.0438138542142792         0.39259862468841        0.706940354965527         0.39259862468841        0.706940354965527       -0.272903112716203        0.521177076729678
579797979.79798      -0.568927107722233      -0.0137351294452283        0.424789054856853        0.704050815675025        0.424789054856853        0.704050815675025       -0.253106892217667          0.5097093375296
598989898.989899      -0.550344412673293       0.0130925807771268        0.455453539712948        0.699651116482965        0.455453539712948        0.699651116482965       -0.234711147494059        0.497956891153914
618181818.181818      -0.531239055671119       0.0369164126167807        0.484601563211476        0.693962224484347        0.484601563211476        0.693962224484347       -0.217623264777974        0.486022499884635
637373737.373738      -0.511868850684241       0.0579804012182474        0.512261072141359        0.687180577879972        0.512261072141359        0.687180577879972       -0.201752388216065        0.473990950391851
656565656.565657      -0.492441382933621        0.076520248939425         0.53847346349376        0.679479554414046         0.53847346349376        0.679479554414046       -0.187010883899253        0.461931589530823
675757575.757576      -0.473121923386539       0.0927599212041885        0.563289556385899        0.671011265312728        0.563289556385899        0.671011265312728       -0.173315296261288        0.449900617285952
694949494.949495      -0.454040383629828        0.106909613484531        0.586766402987435        0.661908492759782        0.586766402987435        0.661908492759782       -0.160586919657301        0.437943120325324
714141414.141415      -0.435297336920544        0.119164724589443        0.608964799833317        0.652286646602084        0.608964799833317        0.652286646602084       -0.148752084470402        0.426094849143776
733333333.333334      -0.416969170225216        0.129705550874815         0.62994737424793        0.642245659170643         0.62994737424793        0.642245659170643       -0.137742236351342        0.414383753490375
752525252.525253      -0.399112451746069        0.138697482211833        0.649777136597397        0.631871768588655        0.649777136597397        0.631871768588655       -0.127493869627678        0.402831297077251
771717171.717172      -0.381767605461696        0.146291534213211         0.66851640543382        0.621239163286827         0.66851640543382        0.621239163286827       -0.117948361489004        0.391453575245401
790909090.909091      -0.364961983348583        0.152625093755904         0.68622602799668        0.610411475864503         0.68622602799668        0.610411475864503        -0.10905174197604        0.380262259624296
810101010.101011      -0.348712420500244        0.157822787967088           0.702964832345        0.599443124722549        0.702964832344999        0.599443124722549       -0.100754425680718        0.369265392784483
829292929.29293      -0.333027350536026        0.161997412253867        0.718789259368594        0.588380508464496        0.718789259368594        0.588380508464496      -0.0930109239898377        0.358468054073154
848484848.484849      -0.317908549924414        0.165250872193581         0.73375313306816        0.577263061996968         0.73375313306816        0.577263061996968      -0.0857795512902356        0.347872915656505
867676767.676768      -0.303352571022828        0.167675108480677        0.747907535932329        0.566124185366815        0.747907535932329        0.566124185366815      -0.0790221344596951         0.33748070553345
886868686.868687       -0.28935191527379        0.169352984741265        0.761300763166699        0.554992057242817        0.761300763166699        0.554992057242817      -0.0727037319091081        0.327290592092407
906060606.060607      -0.275895990366695        0.170359125760642        0.773978335155348        0.543890345011123        0.773978335155348        0.543890345011122      -0.0667923661835749        0.317300502745888
925252525.252526      -0.262971888389083        0.170760699221616        0.785983052064482        0.532838823007999        0.785983052064482        0.532838823007999      -0.0612587724852623         0.30750738733971
944444444.444445      -0.250565016067995        0.170618137968294        0.797355078118103        0.521853909671265        0.797355078118103        0.521853909671265      -0.0560761643006974        0.297907435409053
963636363.636364      -0.238659603101496        0.169985802512064        0.808132045951588        0.510949133496392        0.808132045951588        0.510949133496392      -0.0512200164840746         0.28849625493888
982828282.828283      -0.227239110233362          0.1689125853052        0.818349173721308        0.500135536730081        0.818349173721308        0.500135536730081      -0.0466678655770039        0.279269019067894
1002020202.0202       -0.21628655504839        0.167442459466015        0.828039389434818        0.489422024784634        0.828039389434818        0.489422024784634      -0.0423991267656292        0.270220586134915
1021212121.21212      -0.205784770376921        0.165614975330493         0.83723345836385        0.478815668448377         0.83723345836385        0.478815668448377       -0.038394926636521        0.261345597584012
1040404040.40404      -0.195716607613934        0.163465708564929        0.845960110490737        0.468321965122278        0.845960110490737        0.468321965122278      -0.0346379507541766        0.252638557499729
1059595959.59596      -0.186065095105749        0.161026663702987        0.854246165782315        0.457945064541389        0.854246165782315        0.457945064541389      -0.0311123050161661          0.2440938969174
1078787878.78788      -0.176813559969456         0.15832663694265        0.862116655735309        0.447687963745151        0.862116655735309        0.447687963745151      -0.0278033897252749         0.23570602552838
1097979797.9798      -0.167945720228432        0.155391541907656        0.869594940135233        0.437552675441855        0.869594940135233        0.437552675441855      -0.0246977853353916        0.227469372960836
1117171717.17172      -0.159445752921593        0.152244701882789        0.876702818349589        0.427540373365809        0.876702818349589        0.427540373365809      -0.0217831488677142        0.219378421450041
1136363636.36364      -0.151298342831548        0.148907111800605        0.883460634761871        0.417651517745489        0.883460634761871        0.417651517745489      -0.0190481200475566        0.211427731406288
1155555555.55556      -0.143488715641496        0.145397673007998        0.889887378166122        0.407885963581287        0.889887378166122        0.407885963581287      -0.0164822362736436        0.203611961133847
1174747474.74747      -0.136002658642109        0.141733403587923        0.896000775098839        0.398243054065914        0.896000775098839        0.398243054065914      -0.0140758555968654        0.195925881742271
1193939393.93939      -0.128826531542531        0.137929626763333        0.901817377198617        0.388721701163207        0.901817377198618        0.388721701163207      -0.0118200869512095        0.188364388114906
1213131313.13131      -0.121947269472713        0.134000139672866        0.907352642764175        0.379320455086115        0.907352642764175        0.379320455086115     -0.00970672694385444        0.180922506652616
1232323232.32323      -0.115352379880234        0.129957364584303        0.912621012736077        0.370037564176893        0.912621012736077        0.370037564176893     -0.00772820257300444        0.173595400388624
1251515151.51515      -0.109029934708865        0.125812484404342        0.917635981362788        0.360871026487123        0.917635981362788        0.360871026487123     -0.00587751930007019        0.166378371968773
1270707070.70707      -0.102968558986561        0.121575564152376        0.922410161832326        0.351818634177918        0.922410161832326        0.351818634177918     -0.00414821395696607        0.159266864907023
1289898989.89899     -0.0971574167372521        0.117255659891815         0.92695534716057        0.342878011707831         0.92695534716057        0.342878011707831     -0.00253431201926002        0.152256463455667
1309090909.09091     -0.0915861949557081        0.112860916454494        0.931282566628986        0.334046648644171        0.931282566628986        0.334046648644171     -0.00103028882182243        0.145342891371322
1328282828.28283     -0.0862450862410693        0.108398655151026        0.935402138060428        0.325321927819851        0.935402138060428        0.325321927819851     0.000368965664518051        0.138522009809034
1347474747.47475     -0.0811247705668098        0.103875452531595        0.939323716213485        0.316701149459945        0.939323716213485        0.316701149459945      0.00166817883872383        0.131789814536361
1366666666.66667      -0.076216396568401       0.0992972111465591        0.943056337564788        0.308181551817789        0.943056337564788        0.308181551817789       0.0028717245666563        0.125142432625624
1385858585.85858     -0.0715115626509847       0.0946692231531664        0.946608461735873        0.299760328787599        0.946608461735873        0.299760328787599      0.00398364964732112        0.118576118754435
1405050505.0505     -0.0670022981548113       0.0899962275227072        0.949988009807282        0.291434644897897        0.949988009807282        0.291434644897897      0.00500769789797761        0.112087251221318
1424242424.24242     -0.0626810447635849       0.0852824615202754        0.953202399748113         0.28320164803581        0.953202399748113         0.28320164803581      0.00594733208251408        0.105672327763825
1443434343.43434     -0.0585406382979703       0.0805317070562165        0.956258579174725        0.275058480205604        0.956258579174725        0.275058480205604      0.00680575388480831       0.0993279612503979
1462626262.62626     -0.0545742910017074       0.0757473324432317        0.959163055637936          0.2670022865844        0.959163055637935          0.2670022865844      0.00758592210832987       0.0930508753038464
1481818181.81818     -0.0507755743995923        0.070932330035174        0.961921924624064        0.259030223103183        0.961921924624064        0.259030223103183      0.00829056926493843        0.086837899903154
1501010101.0101     -0.0471384027838092       0.0660893501720821         0.96454089544181        0.251139462750987         0.96454089544181        0.251139462750987      0.00892221669936966       0.0806859670010893
1520202020.20202     -0.0436570173668398       0.0612207318102121        0.967025315154119        0.243327200774124        0.967025315154118        0.243327200774124      0.00948318838113571       0.0745921061874588
1539393939.39394      -0.040325971124557       0.0563285301750999        0.969380190702131        0.235590658919672        0.969380190702131        0.235590658919672       0.0099756234823245       0.0685534404214734
1558585858.58586      -0.037140114341496       0.0514145417395567        0.971610209356936         0.22792708885295        0.971610209356936         0.22792708885295       0.0104014878479035       0.0625671818515125
1577777777.77778      -0.034094580861216       0.0464803267962681        0.973719757624157        0.220333774861695        0.973719757624157        0.220333774861695       0.0107625844544408        0.056630627736209
1596969696.96969     -0.0311847750375046       0.0415272298661321        0.975712938716498        0.212808035945027        0.975712938716498        0.212808035945027       0.0110605629435969       0.0507411564772895
1616161616.16161     -0.0284063593767661       0.0365563981579984        0.977593588700105        0.205347227372512        0.977593588700105        0.205347227372512       0.0112969283081108       0.0448962237716772
1635353535.35353     -0.0257552428577987       0.0315687982728533        0.979365291411987        0.197948741787589        0.979365291411986        0.197948741787589       0.0114730488002639       0.0390933588880171
1654545454.54545     -0.0232275699121766       0.0265652313253727        0.981031392237818        0.190610009920038        0.981031392237818        0.190610009920038       0.0115901631258457        0.033330161070889
1673737373.73737     -0.0208197100463037       0.0215463466378283        0.982595010832043        0.183328500963829        0.982595010832043        0.183328500963829       0.0116493869803438       0.0276042960744296
1692929292.92929     -0.0185282480848281       0.0165126541453628          0.9840590528554        0.176101722669443          0.9840590528554        0.176101722669443        0.011651718978452       0.0219134928258635
1712121212.12121     -0.0163499750142592       0.0114645356374513        0.985426220798704        0.168927221193494        0.985426220798704        0.168927221193494       0.0115980460228591        0.016255540218514
1731313131.31313     -0.0142818794052804      0.00640225494768227        0.986699023955902        0.161802580743024        0.986699023955902        0.161802580743024       0.0114891481536608         0.01062828403312
1750505050.50505     -0.0123211393922523      0.00132596719268172        0.987879787604056        0.154725423047067        0.987879787604056        0.154725423047067       0.0113257029155838      0.00502962398572838
1769696969.69697      -0.010465115188716     -0.00376427284905962        0.988970661442978        0.147693406684011        0.988970661442977        0.147693406684011       0.0111082892763903    -0.000542489099946756
1788888888.88889    -0.00871134211820823     -0.00886850313667725        0.989973627342635        0.140704226289695        0.989973627342635        0.140704226289695        0.010837391126417     -0.00609005599806378
1808080808.0808    -0.00705752414045391      -0.0139868474710048        0.990890506442274        0.133755611668093        0.990890506442274        0.133755611668093       0.0105134003860585      -0.0116150316666265
1827272727.27272    -0.00550152785381031      -0.0191195092366363        0.991722965641254         0.12684532682375        0.991722965641255         0.12684532682375        0.010136619745166      -0.0171193277164786
