! Created Sat Nov 25 13:53:57 2023
# hz S ri R 50
! 2 Port Network Data from SP1.SP block
! freq  reS11  imS11  reS21  imS21  reS12  imS12  reS22  imS22  
!     
10000000   -0.000645144030110956      -0.0153095298733457        0.999528002673577      -0.0266265598333528        0.999528002673577      -0.0266265598333528    -0.000170858029276744      -0.0153221644444291
13980000    -0.00126052717602065      -0.0213852236798971        0.999077594756121      -0.0372161613915266         0.99907759475612      -0.0372161613915266    -0.000333980236736586      -0.0214197380407754
17960000    -0.00207965966026957      -0.0274434996066584        0.998477780428017      -0.0477980237000711        0.998477780428017      -0.0477980237000711    -0.000551332661305248      -0.0275166619914126
21940000    -0.00310209477997447      -0.0334794106478003          0.9977286484314      -0.0583699400636397          0.9977286484314      -0.0583699400636398    -0.000822985826253952      -0.0336127449565408
25920000     -0.0043272744458428      -0.0394880186005588        0.996830310081559      -0.0689297012817494        0.996830310081559      -0.0689297012817494     -0.00114902748689805      -0.0397077908316846
29900000    -0.00575452914532737      -0.0454643960504799        0.995782899569044      -0.0794750951258754        0.995782899569044      -0.0794750951258754     -0.00152956240255453      -0.0458015977065326
33880000    -0.00738307790168202      -0.0514036283770386        0.994586574320263       -0.090003905835769        0.994586574320263       -0.090003905835769     -0.00196471206339688      -0.0518939568325982
37860000    -0.00921202823066469      -0.0573008157831047        0.993241515415625       -0.100513913638414        0.993241515415625       -0.100513913638415     -0.00245461437239203      -0.0579846516013179
41840000     -0.0112403760969224      -0.0631510753516169        0.991747928064096        -0.11100289429301        0.991747928064096        -0.11100289429301     -0.00299942328259306      -0.0640734565342112
45820000     -0.0134670058723725      -0.0689495431326986        0.990106042132884       -0.121468618665318        0.990106042132884       -0.121468618665318     -0.00359930839006117      -0.0701601362867331
49800000      -0.015890690299143      -0.0746913762643038        0.988316112730824       -0.131908852334673        0.988316112730824       -0.131908852334673     -0.00425445448275419      -0.0762444446674617
53780000      -0.018510090459925      -0.0803717551293228        0.986378420843835       -0.142321355236907        0.986378420843834       -0.142321355236907     -0.00496506104576122      -0.0823261236742696
57760000     -0.0213237557588162      -0.0859858855518946         0.98429327402071       -0.152703881346359         0.98429327402071       -0.152703881346359     -0.00573134172330059      -0.0884049025491389
61740000     -0.0243301239159992      -0.0915290010354862         0.98206100710731       -0.163054178400103         0.98206100710731       -0.163054178400103     -0.00655352373795759      -0.0944804968532886
65720000      -0.027527520979819       -0.096996365045083        0.979681983027071       -0.173369987667438        0.979681983027071       -0.173369987667438     -0.00743184726768453       -0.100552607564293
69700000      -0.030914161360062       -0.102383273335613          0.9771565936056       -0.183649043767609          0.9771565936056       -0.183649043767609     -0.00836656478114195       -0.106620920196874
73680000     -0.0344881478864435       -0.107685056328487        0.974485260436955       -0.193889074538637        0.974485260436955       -0.193889074538637      -0.0093579403320182       -0.112685103949066
77660000     -0.0382474718965101       -0.112897081537875        0.971668435789061       -0.204087800960061        0.971668435789061       -0.204087800960061       -0.010406248813017       -0.118744810875452
81640000     -0.0421900133573576       -0.118014756048088        0.968706603545559       -0.214242937132267        0.968706603545559       -0.214242937132267      -0.0115117751702799       -0.124799675089169
85620000     -0.0463135410257398       -0.123033529043114        0.965600280181221       -0.224352190314989        0.965600280181221       -0.224352190314989       -0.012674813579065       -0.130849311994406
89600000     -0.0506157126512948       -0.127948894389106        0.962350015767935       -0.234413261027449        0.962350015767935       -0.234413261027449      -0.0138956665815742       -0.136893317551087
93580000     -0.0550940752277566       -0.132756393270268        0.958956395008097       -0.244423843212458        0.958956395008097       -0.244423843212458      -0.0151746441878976       -0.142931267573462
97560000     -0.0597460652971596       -0.137451616878284        0.955420038292111       -0.254381624466707        0.955420038292111       -0.254381624466707      -0.0165120629411152       -0.148962717064298
101540000     -0.0645690093121329         -0.1420302091551        0.951741602776558       -0.264284286339275        0.951741602776558       -0.264284286339276      -0.0179082449476742       -0.154987199586376
105520000     -0.0695601240614864        -0.14648786958851        0.947921783479455       -0.274129504700306        0.947921783479455       -0.274129504700306      -0.0193635168742424        -0.16100422667297
109500000      -0.074716517164341       -0.150820356059659        0.943961314388899       -0.283914950181554          0.9439613143889       -0.283914950181554        -0.02087820891232       -0.167013287278992
113480000     -0.0800351876381213       -0.155023487741189        0.939860969581251       -0.293638288690433        0.939860969581251       -0.293638288690433      -0.0224526537119752       -0.173013847274438
117460000     -0.0855130265457493        -0.15909314804442        0.935621564344911       -0.303297181998928        0.935621564344911       -0.303297181998928      -0.0240871852861676        -0.17900534898178
121440000     -0.0911468177273669       -0.163025287613522        0.931243956305607       -0.312889288408611        0.931243956305607       -0.312889288408611      -0.0257821378871919       -0.184987210758896
125420000     -0.0969332386219255       -0.166815927364311        0.926729046549018       -0.322412263492775        0.926729046549018       -0.322412263492775      -0.0275378448568944       -0.190958826629101
129400000      -0.102868861183904       -0.170461161564857        0.922077780736455       -0.331863760916504        0.922077780736455       -0.331863760916505      -0.0293546374523788       -0.196919565959815
133380000       -0.10895015290038       -0.173957160954749        0.917291150209222       -0.341241433335286        0.917291150209222       -0.341241433335286      -0.0312328436490368       -0.202868773191345
137360000      -0.115173477913552       -0.177300175899419        0.912370193077219       -0.350542933372537        0.912370193077219       -0.350542933372537      -0.0331727869228123       -0.208805767617209
141340000      -0.121535098253723       -0.180486539575578        0.907315995287236       -0.359765914676216        0.907315995287236       -0.359765914676216       -0.035174785013721        -0.21472984321739
145320000      -0.128031175187592       -0.183512671183385        0.902129691666382       -0.368908033054427        0.902129691666382       -0.368908033054427      -0.0372391486727284       -0.220640268545803
149300000      -0.134657770686522       -0.186375079180614        0.896812466935993       -0.377966947689676        0.896812466935993       -0.377966947689676       -0.039366180394191       -0.226536286673247
153280000      -0.141410849019267       -0.189070364533672        0.891365556691348       -0.386940322431227        0.891365556691348       -0.386940322431227      -0.0415561731361549        -0.23241711518697
157260000      -0.148286278473409       -0.191595223979953        0.885790248342502       -0.395825827164695        0.885790248342502       -0.395825827164695      -0.0438094090309034       -0.238281946247946
161240000      -0.155279833209489       -0.193946453295659        0.880087882011523       -0.404621139257788        0.880087882011523       -0.404621139257788      -0.0461261580882175       -0.244129946706838
165220000      -0.162387195251558       -0.196120950562812        0.874259851381422       -0.413323945080823        0.874259851381422       -0.413323945080823      -0.0485066768939315       -0.249960258279524
169200000      -0.169603956617525       -0.198115719428909        0.868307604492098        -0.42193194160038        0.868307604492097        -0.42193194160038      -0.0509512073064066       -0.255771997782976
173180000      -0.176925621592402       -0.199927872352252        0.862232644478637       -0.430442838044168        0.862232644478637       -0.430442838044167       -0.053459975153664       -0.261564257432149
177160000      -0.184347609147102       -0.201554633825743         0.85603653024737       -0.438854357634908         0.85603653024737       -0.438854357634908      -0.0560331889339715       -0.267336105198409
181140000      -0.191865255505154       -0.202993343571593        0.849720877085142        -0.44716423939076        0.849720877085142        -0.44716423939076      -0.0586710385227496       -0.273086585229936
185120000      -0.199473816859181       -0.204241459699129        0.843287357197354       -0.455370239989524        0.843287357197354       -0.455370239989524       -0.061373693888733       -0.278814718334361
189100000      -0.207168472238648       -0.205296561817631        0.836737700170423       -0.463470135693587        0.836737700170423       -0.463470135693587      -0.0641413038223745        -0.28451950252377
193080000      -0.214944326529843       -0.206156354095892        0.830073693354424       -0.471461724332294        0.830073693354424       -0.471461724332294      -0.0669739946795349       -0.290199913622087
197060000      -0.222796413648631       -0.206818668260003        0.823297182161843       -0.479342827338142        0.823297182161844       -0.479342827338142      -0.0698718691435346       -0.295854905934628
201040000      -0.230719699865984       -0.207281466520664        0.816410070278482       -0.487111291832941        0.816410070278482       -0.487111291832941      -0.0728350050086916       -0.301483412979544
205020000      -0.238709087285772       -0.207542844421225        0.809414319782778       -0.494764992759808        0.809414319782778       -0.494764992759808      -0.0758634539884808       -0.307084348280618
209000000      -0.246759417473786       -0.207601033597469         0.80231195116996       -0.502301835056599         0.80231195116996       -0.502301835056599      -0.0789572405514778       -0.312656606220782
212980000      -0.254865475236371       -0.207454404440168        0.795105043277704       -0.509719755866135        0.795105043277704       -0.509719755866135      -0.0821163607882461       -0.318199062955507
216960000      -0.263021992546513       -0.207101468651301        0.787795733110149       -0.517016726778349        0.787795733110149       -0.517016726778349      -0.0853407813123325        -0.32371057738505
220940000      -0.271223652614633       -0.206540881684886        0.780386215557415       -0.524190756099225        0.780386215557415       -0.524190756099225      -0.0886304381985129       -0.329189992184364
224920000      -0.279465094100755       -0.205771445063375        0.772878743008016       -0.531239891141211        0.772878743008016       -0.531239891141211      -0.0919852359614075       -0.334636134889302
228900000      -0.287740915464121       -0.204792108560628        0.765275624851834       -0.538162220529551        0.765275624851834       -0.538162220529551      -0.0954050465775435       -0.340047819037544
232880000       -0.29604567944576       -0.203601972242607        0.757579226871643       -0.544955876518834        0.757579226871644       -0.544955876518834      -0.0988897085538981       -0.345423845362502
236860000      -0.304373917678865       -0.202200288357072        0.749791970521469       -0.551619037313835        0.749791970521469       -0.551619037313835       -0.102439026045891       -0.350763003038286
240840000      -0.312720135421315       -0.200586463063741        0.741916332090398       -0.558149929388617        0.741916332090398       -0.558149929388617       -0.106052768027712        -0.35606407097361
244820000       -0.32107881640403       -0.198760057996628        0.733954841750808        -0.56454682979769        0.733954841750808        -0.56454682979769       -0.109730667517803       -0.361325819152342
248800000      -0.329444427788308       -0.196720791650532        0.725910082490336       -0.570808068472934        0.725910082490336       -0.570808068472934       -0.113472420862186        -0.36654701001824
252780000      -0.337811425224711       -0.194468540583968        0.717784688927256       -0.576932030499878        0.717784688927256       -0.576932030499878       -0.117277687078247       -0.371726399901221
256760000      -0.346174258005527       -0.192003340431187        0.709581346009338       -0.582917158366874        0.709581346009338       -0.582917158366874       -0.121146087261429       -0.376862740482354
260740000      -0.354527374302305       -0.189325386716337        0.701302787596623       -0.588761954180651        0.701302787596623       -0.588761954180651       -0.125077204057193       -0.381954780294602
264720000      -0.362865226479421       -0.186435035463234        0.692951794928954         -0.5944649818417        0.692951794928954         -0.5944649818417       -0.129070581200395       -0.387001266256179
268700000      -0.371182276474204        -0.18333280359471        0.684531194979472       -0.600024869172964        0.684531194979472       -0.600024869172964       -0.133125723124145       -0.392000945233255
272680000      -0.379473001233633        -0.18001936911599        0.676043858695731       -0.605440309995315        0.676043858695731       -0.605440309995315        -0.13724209463997       -0.396952565628568
276660000      -0.387731898197226       -0.176495571077124        0.667492699130427       -0.610710066143368        0.667492699130427       -0.610710066143368       -0.141419120690964       -0.401854878992419
280640000       -0.39595349081533       -0.172762409310062        0.658880669464195       -0.615832969415245        0.658880669464195       -0.615832969415245        -0.14565618617941       -0.406706641652368
284620000       -0.40413233409168       -0.168821043936565        0.650210760923262       -0.620807923450045        0.650210760923261       -0.620807923450045       -0.149952635870143       -0.411506616357859
288600000      -0.412263020138747       -0.164672794643812        0.641486000595201       -0.625633905526855        0.641486000595201       -0.625633905526855       -0.154307774370723       -0.416253573935907
292580000      -0.420340183734149       -0.160319139725204        0.632709449146365       -0.630309968279355        0.632709449146365       -0.630309968279355       -0.158720866189272       -0.420946294953895
296560000      -0.428358507866126       -0.155761714884556        0.623884198444973        -0.63483524132021        0.623884198444973        -0.63483524132021         -0.1631911358706       -0.425583571385447
300540000      -0.436312729255942         -0.1510023118026        0.615013369094211       -0.639208932769695        0.615013369094211       -0.639208932769696       -0.167717768211008        -0.43016420827532
304520000      -0.444197643844865       -0.146042876465416        0.606100107880021       -0.643430330683205        0.606100107880021       -0.643430330683205       -0.172299908551935       -0.434687025399185
308500000      -0.452008112233344       -0.140885507255175        0.597147585138636       -0.647498804372577        0.597147585138636       -0.647498804372577       -0.176936663152361       -0.439150858914155
312480000      -0.459739065059917       -0.135532452804317        0.588158992049193       -0.651413805616457        0.588158992049193       -0.651413805616457       -0.181627099639647       -0.443554562995922
316460000      -0.467385508307412       -0.129986109615034         0.57913753785713       -0.655174869755214         0.57913753785713       -0.655174869755214       -0.186370247538241       -0.447897011458346
320440000      -0.474942528524041       -0.124249019446705        0.570086447034277       -0.658781616666276        0.570086447034277       -0.658781616666276       -0.191165098875437       -0.452177099351388
324420000      -0.482405297947101       -0.118323866474671        0.561008956381895       -0.662233751616077        0.561008956381895       -0.662233751616077       -0.196010608863132         -0.4563937445333
328400000      -0.489769079517182       -0.112213474224501        0.551908312083083       -0.665531065985207        0.551908312083083       -0.665531065985207       -0.200905696654288       -0.460545889213047
332380000      -0.497029231770936       -0.105920802286638        0.542787766711271       -0.668673437863718        0.542787766711271       -0.668673437863718       -0.205849246172541       -0.464632501459009
336360000      -0.504181213600793       -0.099448942817042         0.53365057620163        -0.67166083251395         0.53365057620163        -0.67166083251395       -0.210840107013214       -0.468652576670103
340340000      -0.511220588870254      -0.0928011168301691        0.524499996792447       -0.674493302698651        0.524499996792447       -0.674493302698651       -0.215877095413703       -0.472605139005558
344320000      -0.518143030873812       -0.085980670291309         0.51533928194364         -0.6771709888726         0.51533928194364         -0.6771709888726       -0.220958995291033       -0.476489242769694
348300000      -0.524944326630927      -0.0789910700159764        0.506171679239669       -0.679694119236367        0.506171679239669       -0.679694119236367       -0.226084559344135       -0.480303973748214
352280000      -0.531620381003918      -0.0718358993846964        0.497000427284225       -0.682063009651286        0.497000427284225       -0.682063009651286       -0.231252510218196       -0.484048450492624
356260000      -0.538167220630198      -0.0645188538821279         0.48782875259408       -0.684278063415165        0.487828752594081       -0.684278063415165       -0.236461541728257       -0.487721825549606
360240000      -0.544580997659729      -0.0570437364700472        0.478659866499538        -0.68633977089871        0.478659866499538       -0.686339770898711        -0.24171032013901       -0.491323286632295
364220000      -0.550857993289221      -0.0494144528042572        0.469496962058885       -0.688248709043085        0.469496962058885       -0.688248709043085       -0.246997485497618       -0.494852057730638
368200000      -0.556994621085175      -0.0416350063059782        0.460343210994233        -0.69000554071947        0.460343210994233        -0.69000554071947       -0.252321653016187       -0.498307400158183
372180000      -0.562987430088515      -0.0337094930987408         0.45120176065603       -0.691611013951937         0.45120176065603       -0.691611013951937       -0.257681414500387       -0.501688613532869
376160000      -0.568833107694247      -0.0256420968222038         0.44207573102346       -0.693065961005392         0.44207573102346       -0.693065961005392       -0.263075339820588       -0.504995036689592
380140000      -0.574528482300248      -0.0174370833346966        0.432968211747793       -0.694371297340754        0.432968211747793       -0.694371297340754       -0.268501978421751       -0.508226048522568
384120000      -0.580070525720048     -0.00909879531659096        0.423882259245596        -0.69552802043997        0.423882259245596        -0.69552802043997       -0.273959860868227       -0.511381068755705
