! Created Sat Nov 25 14:13:25 2023
# hz S ri R 50
! 2 Port Network Data from SP1.SP block
! freq  reS11  imS11  reS21  imS21  reS12  imS12  reS22  imS22  
!     
100000000       0.824416813516633       -0.561214127188471      -0.0666982914176928       0.0304459884429939      -0.0666982914176928       0.0304459884429939       -0.964104885892604        0.255198253708993
119191919.191919       0.751258957168357       -0.651865443354852      -0.0900367889002806       0.0507424766825999      -0.0900367889002806       0.0507424766825999       -0.946706739263677        0.305065447930715
138383838.383838       0.666583357642035        -0.73256484852121       -0.113865665000024       0.0777816149858939       -0.113865665000024       0.0777816149858939       -0.924822741991254        0.354524366692388
157575757.575758       0.571697872160391       -0.801259241578704       -0.136515204993363        0.111842607441586       -0.136515204993363        0.111842607441586       -0.898076763894821        0.402880821200751
176767676.767677       0.468467308580471       -0.856034547364245       -0.156217703969642        0.152771930581885       -0.156217703969642        0.152771930581885       -0.866268815142487        0.449260621545348
195959595.959596        0.35931113161631        -0.89532014731867       -0.171238138746228        0.199937099250504       -0.171238138746228        0.199937099250504       -0.829445784208093        0.492668597743293
215151515.151515       0.247112658088574       -0.918098479635332        -0.18002906655975        0.252230153701716        -0.18002906655975        0.252230153701716       -0.787948930953123         0.53207703100401
234343434.343434       0.135038028916234       -0.924076691339623       -0.181385851124911        0.308133366655881       -0.181385851124911        0.308133366655881       -0.742424317160274        0.566532553877968
253535353.535354      0.0262867706551932       -0.913778030400867       -0.174572214102248        0.365845948869777       -0.174572214102248        0.365845948869777       -0.693788719701665        0.595263383821021
272727272.727273     -0.0761830866588307       -0.888525644918368       -0.159388898938702        0.423454240683771       -0.159388898938702        0.423454240683771       -0.643153833365482        0.617766000609654
291919191.919192      -0.169902641313456       -0.850317177201677       -0.136170411952739        0.479115235618861       -0.136170411952739        0.479115235618861       -0.591722266202384          0.6338540601141
311111111.111111      -0.253066417578824        -0.80161582824372       -0.105712391142934        0.531219674014869       -0.105712391142934        0.531219674014869       -0.540675748903513        0.643661621334951
330303030.30303      -0.324607743348022       -0.745102020557021       -0.069148430545199        0.578507809807299      -0.0691484305451989        0.578507809807299       -0.491076448166114        0.647604146476262
349494949.49495      -0.384175453907382       -0.683433344642144       -0.027804288363384        0.620124991566087      -0.0278042883633839        0.620124991566087       -0.443796603474425         0.64630990326529
368686868.686869      -0.432033558248629       -0.619050134031479       0.0169427735335344        0.655619461373575       0.0169427735335344        0.655619461373575       -0.399482778210697        0.640538503242641
387878787.878788      -0.468916371464996       -0.554046157927435       0.0637791952178402        0.684895981410362       0.0637791952178402        0.684895981410362       -0.358552457566541        0.631102086835847
407070707.070707      -0.495871440885441        -0.49010611627396        0.111534961429274        0.708143672535034        0.111534961429274        0.708143672535034       -0.321215084504988        0.618799936041555
426262626.262626      -0.514114943362605       -0.428499034946539        0.159227602312263         0.72575544945863        0.159227602312263         0.72575544945863       -0.287507610321917        0.604371551433521
445454545.454546      -0.524913873977643       -0.370110848618063        0.206076102595915        0.738252005958651        0.206076102595915        0.738252005958651        -0.25733549411724        0.588468401053138
464646464.646465      -0.529499984116065       -0.315499249981878        0.251493168663003         0.74621791451552        0.251493168663003         0.74621791451552       -0.230512469395889         0.57164150615609
483838383.838384      -0.529013871739873       -0.264956978633925        0.295064310123777        0.750252741173978        0.295064310123777        0.750252741173978       -0.206795097895666        0.554340747803907
503030303.030303      -0.524474098640473       -0.218573977595216        0.336520693462117        0.750936854091565        0.336520693462117        0.750936854091565       -0.185910409392008        0.536921766794681
522222222.222223      -0.516765055605449       -0.176292847151071        0.375710720587295        0.748809831392318        0.375710720587295        0.748809831392318        -0.16757650228278        0.519657008679879
541414141.414142      -0.506637624089491       -0.137955118693185         0.41257340088541        0.744358711769263         0.41257340088541        0.744358711769263       -0.151516878173852          0.5027483790795
560606060.606061      -0.494717722926901        -0.10333793199692        0.447115104689657        0.738013366699489        0.447115104689657        0.738013366699489       -0.137469666696879        0.486339844568735
579797979.79798      -0.481519059444451       -0.072181880938676        0.479390263266956        0.730146661150962        0.479390263266956        0.730146661150962       -0.125192949840783        0.470529014995678
598989898.989899      -0.467457538266773      -0.0442113385377455         0.50948595308024         0.72107757622678         0.50948595308024         0.72107757622678       -0.114467271165206        0.455377246311797
618181818.181818      -0.452865698076435      -0.0191487137417922        0.537509968874047        0.711075959022842        0.537509968874046        0.711075959022842       -0.105096219554725        0.440918131230384
637373737.373738      -0.438006226064951      0.00327599156778421        0.563581852845259        0.700367981015733        0.563581852845259        0.700367981015733      -0.0969057720140445        0.427164438612687
656565656.565657      -0.423084069718965       0.0233191450306795        0.587826327751243        0.689141709459744        0.587826327751243        0.689141709459745      -0.0897428966847584        0.414113662096866
675757575.757576      -0.408256970593574       0.0412200040680824        0.610368625247919        0.677552432241685        0.610368625247919        0.677552432241685      -0.0834737675331403        0.401752377674513
694949494.949495      -0.393644429522592       0.0571990416201226        0.631331271665209        0.665727540413817        0.631331271665209        0.665727540413817      -0.0779818269751406        0.390059613357186
714141414.141415      -0.379335214920788       0.0714575068675257        0.650831970977569        0.653770881041158        0.650831970977569        0.653770881041158      -0.0731658479737242        0.379009418493165
733333333.333334      -0.365393574200462        0.084177799298473        0.668982297853021        0.641766561230729        0.668982297853021        0.641766561230729      -0.0689380870630109        0.368572796281891
752525252.525253       -0.35186432344848       0.0955243515030926        0.685886977396659        0.629782224513598        0.685886977396659        0.629782224513598      -0.0652225785481313        0.358719136839511
771717171.717172      -0.338776986415836        0.105644805377095        0.701643581093641        0.617871842381769        0.701643581093641        0.617871842381769      -0.0619535928054612         0.34941726317489
790909090.909091      -0.326149139700513        0.114671332990889        0.716342510904865        0.606078073406272        0.716342510904865        0.606078073406272      -0.0590742641710216        0.340636180234629
810101010.101011       -0.31398910245708        0.122722002059965        0.730067176721664        0.594434244603084        0.730067176721663        0.594434244603084      -0.0565353833185224        0.332345598310793
829292929.29293      -0.302298089422823        0.129902120937084        0.742894297960204        0.582966007674354        0.742894297960204        0.582966007674354      -0.0542943430659967        0.324516286545527
848484848.484849      -0.291071927380832        0.136305522776237        0.754894279458548        0.571692718454395        0.754894279458548        0.571692718454396      -0.0523142236234203        0.317120299701146
867676767.676768      -0.280302418309062        0.142015765699952        0.766131626350174        0.560628582604684        0.766131626350174        0.560628582604684      -0.0505630022973854        0.310131111372688
886868686.868687      -0.269978417744778        0.147107237508886        0.776665373335231        0.549783605097425        0.776665373335231        0.549783605097425      -0.0490128728489303        0.303523678967637
906060606.060607      -0.260086684353527        0.151646161261466        0.786549511651287        0.539164375740543        0.786549511651287        0.539164375740543      -0.0476396605538241        0.297274459662237
925252525.252526      -0.250612546186358        0.155691503070752          0.7958334027659           0.528774718155          0.7958334027659           0.528774718155      -0.0464223202127809         0.29136139181571
944444444.444445      -0.241540420414637         0.15929578655338        0.804562171921811        0.518616225314248        0.804562171921811        0.518616225314248      -0.0453425056940767        0.285763852689631
963636363.636364      -0.232854216200717        0.162505820125455        0.812777077580363        0.508688701014024        0.812777077580363        0.508688701014024      -0.0443842009355654        0.280462600540682
982828282.828283      -0.224537644552799        0.165363344203687        0.820515854846352        0.498990523433662        0.820515854846352        0.498990523433662      -0.0435334036134858        0.275439707039218
1002020202.0202      -0.216574454302394         0.16790560564171         0.82781303235523        0.489518944230637         0.82781303235523        0.489518944230637      -0.0427778538628525        0.270678484362165
1021212121.21212      -0.208948609538854        0.170165866624533        0.834700223037895        0.480270334322176        0.834700223037895        0.480270334322177      -0.0421068014918246        0.266163410097781
1040404040.40404      -0.201644420771863        0.172173854905999        0.841206389779998        0.471240385594168        0.841206389779998        0.471240385594168      -0.0415108060669546        0.261880052189639
1059595959.59596      -0.194646639630391        0.173956161805541        0.847358087357938        0.462424276183929        0.847358087357938        0.462424276183929      -0.0409815650622619        0.257814995466348
1078787878.78788      -0.187940524930526        0.175536593849028         0.85317968223284        0.453816805660333         0.85317968223284        0.453816805660333      -0.0405117659715065        0.253955770797094
1097979797.9798       -0.18151188636051        0.176936483388424        0.858693551868096        0.445412505328847        0.858693551868096        0.445412505328847      -0.0400949588907064        0.250290787538951
1117171717.17172      -0.175347110762272        0.178174962994373        0.863920265242568        0.437205727982615        0.863920265242568        0.437205727982615      -0.0397254465981272        0.246809269667825
1136363636.36364      -0.169433174972948        0.179269207901963        0.868878746186924        0.429190720671841        0.868878746186924        0.429190720671841      -0.0393981896028254        0.243501195786189
1155555555.55556      -0.163757648376799        0.180234650312062        0.873586421093817        0.421361683445317        0.873586421093817        0.421361683445317      -0.0391087240104891        0.240357243058761
1174747474.74747      -0.158308687667556        0.181085168913439         0.87805935245709        0.413712816507449         0.87805935245709        0.413712816507449       -0.038853090376198        0.237368735027745
1193939393.93939      -0.153075025801036        0.181833256595476        0.882312359590304        0.406238357812612        0.882312359590304        0.406238357812612      -0.0386277719860084        0.234527593191189
1213131313.13131      -0.148045956701904        0.182490168966749        0.886359127766888        0.398932612770695        0.886359127766888        0.398932612770695      -0.0384296412401512        0.231826292183528
1232323232.32323      -0.143211316956054        0.183066055978981        0.890212306917549          0.3917899774501        0.890212306917549          0.3917899774501      -0.0382559130063979        0.229257818369938
1251515151.51515      -0.138561465454477        0.183570078676055        0.893883600917824        0.384804956426875        0.893883600917824        0.384804956426875      -0.0381041039781093        0.226815631651312
1270707070.70707      -0.134087261742442        0.184010512840722        0.897383848401638        0.377972176232049        0.897383848401638         0.37797217623205      -0.0379719972122425        0.224493630270854
1289898989.89899       -0.12978004365868         0.18439484109416        0.900723095946249        0.371286395186624        0.900723095946249        0.371286395186624      -0.0378576111420211        0.222286118413775
1309090909.09091      -0.125631604714459        0.184729834812603        0.903910664390513        0.364742510278898        0.903910664390513        0.364742510278898      -0.0377591724603883        0.220187776396594
1328282828.28283      -0.121634171555191        0.185021627057724        0.906955208971971        0.358335561627158        0.906955208971971        0.358335561627157      -0.0376750923565535         0.21819363325036
1347474747.47475      -0.117780381762032        0.185275777570817        0.909864773898718        0.352060734978131        0.909864773898718        0.352060734978131      -0.0376039456612279        0.216299041511939
1366666666.66667      -0.114063262183406        0.185497330752459        0.912646841909004        0.345913362614708        0.912646841909004        0.345913362614708      -0.0375444525185847        0.214499654048281
1385858585.85858      -0.110476207933081        0.185690867437032        0.915308379314612        0.339888922982569        0.915308379314612        0.339888922982569      -0.0374954622561716        0.212791402749964
1405050505.0505      -0.107012962149386        0.185860551173317         0.91785587697291        0.333983039292259         0.91785587697291         0.33398303929226      -0.0374559391694106        0.211170478941691
1424242424.24242      -0.103667596577301        0.186010169636508        0.920295387586415        0.328191477309092        0.920295387586415        0.328191477309092      -0.0374249499761266        0.209633315368729
1443434343.43434      -0.100434493009467        0.186143171721893        0.922632559687522        0.322510142506517        0.922632559687522        0.322510142506517      -0.0374016527297135         0.20817656962908
1462626262.62626     -0.0973083256023561        0.186262700804771         0.92487266862908        0.316935076727969         0.92487266862908        0.316935076727969      -0.0373852870080095        0.206797108931578
1481818181.81818      -0.094284044068638        0.186371624593667        0.927020644868454         0.31146245447675        0.927020644868454         0.31146245447675      -0.0373751652193038        0.205491996069887
1501010101.0101     -0.0913568577352702        0.186472561953574        0.929081099803152        0.306088578932216        0.929081099803151        0.306088578932216      -0.0373706648878613        0.204258476511519
1520202020.20202     -0.0885222204482755        0.186567907031841        0.931058349389671        0.300809877772889        0.931058349389671        0.300809877772889      -0.0373712217993497        0.203093966509549
1539393939.39394     -0.0857758162989295        0.186659850980668        0.932956435753601        0.295622898872305        0.932956435753601        0.295622898872306      -0.0373763239020642        0.201996042152614
1558585858.58586      -0.083113546141663        0.186750401536239        0.934779146977902        0.290524305921153        0.934779146977902        0.290524305921153      -0.0373855058732064        0.200962429276066
1577777777.77778     -0.0805315148710477         0.18684140068474        0.936530035237429        0.285510874018983        0.936530035237429        0.285510874018983      -0.0373983442710275        0.199990994163898
1596969696.96969     -0.0780260194233789        0.186934540619351        0.938212433430873        0.280579485270249        0.938212433430873        0.280579485270249      -0.0374144532036034        0.199079734977212
1616161616.16161     -0.0755935374674377        0.187031378169277        0.939829470446233        0.275727124412307        0.939829470446233        0.275727124412307      -0.0374334804536691        0.198226773850676
1635353535.35353     -0.0732307167487227        0.187133347861655        0.941384085182397        0.270950874497124        0.941384085182397        0.270950874497124      -0.0374551040063972        0.197430349603568
1654545454.54545     -0.0709343650516863        0.187241773759296        0.942879039437345        0.266247912643482        0.942879039437345        0.266247912643482      -0.0374790289335084         0.19668881101676
1673737373.73737     -0.0687014407451282        0.187357880201549        0.944316929762649        0.261615505872432        0.944316929762649        0.261615505872431      -0.0375049845927442        0.196000610631314
1692929292.92929     -0.0665290438767936        0.187482801561648        0.945700198374238         0.25705100703532        0.945700198374238         0.25705100703532      -0.0375327221066233        0.195364299028292
1712121212.12121     -0.0644144077843403        0.187617591121689        0.947031143200681        0.252551850840947        0.947031143200681        0.252551850840947      -0.0375620120886817        0.194778519553004
1731313131.31313     -0.0623548911910536        0.187763229155536        0.948311927142439        0.248115549986072        0.948311927142439        0.248115549986072       -0.037592642589112        0.194242003450194
1750505050.50505     -0.0603479707560304         0.18792063030039        0.949544586608486        0.243739691391596        0.949544586608486        0.243739691391596      -0.0376244172349561        0.193753565379669
1769696969.69697     -0.0583912340499124        0.188090650289265        0.950731039390423        0.239421932545161        0.950731039390423        0.239421932545161      -0.0376571535428525        0.193312099284612
1788888888.88889     -0.0564823729286239        0.188274092109119        0.951873091928468         0.23515999794965        0.951873091928468         0.23515999794965      -0.0376906813847891        0.192916574587319
1808080808.0808     -0.0546191772789517        0.188471711642719        0.952972446018623        0.230951675675985        0.952972446018624        0.230951675675985      -0.0377248415895014        0.192566032689411
1827272727.27272     -0.0527995291111516        0.188684222846418        0.954030705005697        0.226794814017794        0.954030705005697        0.226794814017794      -0.0377594846640252        0.192259583755626
